Frequency Log(Hz), Gain (dB), Phase (deg)
-0.00971057074838073, 0.0628491824882713, -0.225407896470123
0.0104928153399063, 0.0613743308130192, -0.231767014148177
0.0104928153399063, 0.0609106123071281, -0.237226297199619
0.0297979705352929, 0.0584750419016045, -0.23658272155755
0.048281376229306, 0.057048422399315, -0.247920886454002
0.048281376229306, 0.0573323022784533, -0.249821763882261
0.0660101431897376, 0.0562309784574249, -0.243994746052771
0.0660101431897376, 0.0538219899736719, -0.256845968717298
0.083043482488518, 0.054294810869261, -0.245688190737723
0.083043482488518, 0.0554048700140516, -0.252628362590639
0.0994338986766873, 0.0522717309895937, -0.263428379371319
0.115228165859919, 0.0497653602052408, -0.257793710529193
0.115228165859919, 0.0512812735620594, -0.26144257553673
0.130468132416656, 0.050241221699105, -0.257052136532002
0.145191389237362, 0.048612870575326, -0.267918627155329
0.145191389237362, 0.048117453357812, -0.265769607838327
0.159431828351973, 0.0471641154809871, -0.266286344302737
0.173220112837606, 0.0470554037100809, -0.266100616363055
0.186584074395587, 0.0458913759128753, -0.262192900447841
0.186584074395587, 0.0443247554756264, -0.267630561892548
0.199549051559955, 0.0419785788495989, -0.266125484512394
0.212138178867976, 0.042765245269208, -0.262099419818579
0.224372635284987, 0.0406410496504716, -0.267315200860275
0.224372635284987, 0.0418983168082813, -0.266651098289786
0.236271858584695, 0.0392324384500463, -0.259801496834146
0.24785373113451, 0.0388094661546288, -0.262760834791463
0.259134741544199, 0.0386842145483322, -0.265334551635181
0.270130125845662, 0.0374278128160533, -0.260435758379183
0.280853991237435, 0.0369117894684673, -0.266794140959579
0.2913194249156, 0.0351109120682349, -0.258963519490596
0.301538590097287, 0.0334680724135491, -0.260537553065084
0.311522811003887, 0.0329975247164088, -0.262289371220499
0.321282648293044, 0.0317908880317272, -0.260762810644724
0.330827966199274, 0.0314116949185469, -0.257013911648861
0.340167992453418, 0.0313844861948274, -0.26054047872372
0.349311371893287, 0.029929295114351, -0.250066083515233
0.358266214546214, 0.0285477807200878, -0.251775952750098
0.367040138853719, 0.0285700881472197, -0.242161245264162
0.384073478152499, 0.0282762358645278, -0.243686140344838
0.392346004118489, 0.0269545183906186, -0.252599745733127
0.400463894340668, 0.0258039364514243, -0.244886638509785
0.408432824011944, 0.0257653114811916, -0.248700652039901
0.4162581615239, 0.025177055253283, -0.247714585858787
0.431498128080637, 0.0238860248332543, -0.242951110791731
0.438922146159844, 0.0220935373051878, -0.239586894616838
0.453399969528467, 0.0208825968481294, -0.238515280831312
0.460461824015954, 0.021200386257231, -0.238096719599146
0.467410683971282, 0.0208402458183611, -0.235180972464508
0.480983491160556, 0.020201999516863, -0.22943627021237
0.487614070059569, 0.0200170557917462, -0.228604146980572
0.500579047223936, 0.0189570354732268, -0.230550197171318
0.506919225254955, 0.0180871037903293, -0.224804449094073
0.519328483236775, 0.0172899483736494, -0.217818014158744
0.531392994638156, 0.0170373171412048, -0.214978047441813
0.537301854248676, 0.0172491603646135, -0.21948984261976
0.548883726798491, 0.0158513933298642, -0.219584810738995
0.56016473720818, 0.0145756730753073, -0.219302872223439
0.571160121509644, 0.0149184589288616, -0.208607116233308
0.581883986901417, 0.0143076407892916, -0.211491083880376
0.592349420579582, 0.0134989235185884, -0.19963123178049
0.597489060231993, 0.0130734313362187, -0.207812720580931
0.607589387136319, 0.0129431371848839, -0.196280193067207
0.622312643957025, 0.0124022535290142, -0.200987366099433
0.631857961863255, 0.0121866725188577, -0.198377571665514
0.641197988117399, 0.0120560245578944, -0.195467129299086
0.650341367557268, 0.0113690036074122, -0.189858200721173
0.659296210210195, 0.0110014729740089, -0.186288343503893
0.6680701345177, 0.00997784846443483, -0.185430634722946
0.680907359222872, 0.00999992090720734, -0.180006194531782
0.689259433587638, 0.00991042920697915, -0.179990753059212
0.70149389000465, 0.0088732214853677, -0.179240485931493
0.709462819675925, 0.00884002103226121, -0.172105751771432
0.72114857800112, 0.00872850697097487, -0.176284563181906
0.728767974871312, 0.00790937053375091, -0.170350478409471
0.739952141823825, 0.00771786939325122, -0.169602702427692
0.75085550483415, 0.00780835825746404, -0.167429203991864
0.761491819679935, 0.00718299634965735, -0.169629694163432
0.768440679635263, 0.00740603681678632, -0.15945604308876
0.778659844816949, 0.00717303558806472, -0.160652018265045
0.78864406572355, 0.00728238720349871, -0.162795241476038
0.798403903012706, 0.00656117239515083, -0.15499320027726
0.811084934771795, 0.00658121570432224, -0.150716060879119
0.820358478900756, 0.00659637100213644, -0.151420279353475
0.829438136752675, 0.00574377162895573, -0.151312852622504
0.841256402929974, 0.00586819718382996, -0.145351782940777
0.849913722462473, 0.00527703870732708, -0.141650220307184
0.861194732872162, 0.00566789975287547, -0.146584717024393
0.869467258838151, 0.00482837976760218, -0.144324442321696
0.880257738921658, 0.00537697339820635, -0.142618615304319
0.890786605665283, 0.00523564669069923, -0.138691732509049
0.901066244909854, 0.00390684877831726, -0.136865188587512
0.911108183203994, 0.00391016662179215, -0.136242841520235
0.920923165497593, 0.00399172641044137, -0.136076582083723
0.930521224248129, 0.00396781984130676, -0.135462037845265
0.939911741054199, 0.00347367806350548, -0.129882457227103
0.949103501765427, 0.0042685564187926, -0.135939349936363
0.960326205874176, 0.00420566262414598, -0.125802869272288
0.969100130181681, 0.00353003795288696, -0.128084024824773
0.979823995573454, 0.00401104307875192, -0.130542513479768
0.990289429251619, 0.00344690391238195, -0.126698471422003
1.00050859443331, 0.00301979111812346, -0.122838284019671
1.01049281533991, 0.00339000892536983, -0.121658989526644
1.02025265262906, 0.00300174927841348, -0.124997214306704
1.02979797053529, 0.0033970420416816, -0.128985758273432
1.03913799678944, 0.00337130921596727, -0.123775880537766
1.05008717709257, 0.00240829115504944, -0.122129403748002
1.06076708777737, 0.00245577359389385, -0.11993646039318
1.06947067529924, 0.00230187100458697, -0.120590301616612
1.07968984048093, 0.00217626724909275, -0.119901476413094
1.08967406138753, 0.00244543209215173, -0.120107171245516
1.09943389867669, 0.0025272573213628, -0.117590443188574
1.11054990358215, 0.00163461746550549, -0.117744388425964
1.11985657004199, 0.00298915509028453, -0.116372233142091
1.13046813241666, 0.00181467025897394, -0.117345865027913
1.13936184557664, 0.00174585325926371, -0.119198471940996
1.14951276302001, 0.0018831182302898, -0.120916130063473
1.15943182835197, 0.00212175666386561, -0.117692380507225
1.17049725450213, 0.00203360719795722, -0.114238358076631
1.17995349549657, 0.00149601313641201, -0.114773262648745
1.19051436802402, 0.00214430388821145, -0.11571633894637
1.19954905155996, 0.00224292409896312, -0.116758747496294
1.20964937846428, 0.00195945651736626, -0.118243681004465
1.21952013249058, 0.00154907001487771, -0.115829024729512
1.23036299897417, 0.00216713301096378, -0.114433347347302
1.23977896632639, 0.00146248327073543, -0.117338537417339
1.25013349742941, 0.000604371881399076, -0.114288017124808
1.26024689191357, -0.000329154689460826, -0.11445819690655
1.27013012584566, 0.000496883906762248, -0.114865872641724
1.27979344252504, 6.21157453267525e-06, -0.122757938475144
1.290284157484, 0.00126583472906587, -0.120431663600374
1.29951390353087, 0.000541815211936265, -0.115197700230786
1.3095442450218, 0.00066762106113595, -0.121861984243221
1.32031647552102, 0.00164546364464113, -0.117882690262645
1.32988282005496, 0.000428620360282364, -0.120925543412485
1.34016799245342, -7.20953977499119e-06, -0.119155579711767
1.35021521089153, 0.000738501489662261, -0.119503758076003
1.36003523728506, -0.000462130176506183, -0.12275769798193
1.36963811957363, 0.000925021201342561, -0.121911342086793
1.37987736355889, -0.000225785704930331, -0.122513540411188
1.38988074973025, 2.4976476232772e-05, -0.121180534207678
1.39965889970444, 0.000676459495456401, -0.126900210231731
1.4100092122469, 0.000724398143650255, -0.134698300101597
1.42011858233714, -0.00048632683334992, -0.127116580213596
1.42999797293823, -8.97863084217966e-05, -0.137442657454056
1.43965761539896, 7.64096062378841e-05, -0.130921643350678
1.44982550917017, -0.000984941231526346, -0.135375334821554
1.45976078353782, -0.000267873755563482, -0.131387350889086
1.47015939239943, -0.000475688066803054, -0.139076295721907
1.48031483131807, -0.0011769016349742, -0.137858869357243
1.49023821388572, -0.000477401820505174, -0.141649397671942
1.4999399087982, -0.000540551035396218, -0.143069502758074
1.51005493910781, 0.00087804684663624, -0.141727292806906
1.51993973524747, 0.000175147991724588, -0.140399021938052
1.53020151383074, 0.000209131065737434, -0.15393126677465
1.54022640726599, -0.000703095013840635, -0.151525573273064
1.5500251058573, -0.000250890576805525, -0.158638215801787
1.56016473720818, -0.000507165946130874, -0.154005834071707
1.57007302586843, -0.000968386722405606, -0.157671960211257
1.57976029327156, -0.00137294324907954, -0.156826570816846
1.5897566100013, 2.28617794462002e-05, -0.161740292068934
1.60003624924587, -3.85016751301117e-06, -0.165641350438278
1.61007818754001, 9.6837429987727e-05, -0.172471580136414
1.61989316983361, 0.000691519570054831, -0.174680663457132
1.62996560818555, 0.000188488954819455, -0.1775039355474
1.63980972540548, -0.000398381895579039, -0.179963232120575
1.64988874168836, 0.00122357627189177, -0.176484744309925
1.66018162230465, -0.000865180197682739, -0.185180239927586
1.6698038473267, 0.000178073144603408, -0.189236429511412
1.68006324917696, -0.00198959739037935, -0.195070261931366
1.69008587433542, -0.000222751162683113, -0.194984929547653
1.69988240584807, -0.000354484091780937, -0.195497455394027
1.70985745348945, -0.000767042350975338, -0.210118343144099
1.71999405056381, 0.000149030600695665, -0.204010039421526
1.7298994418124, -0.000856711817330165, -0.213425833253502
1.73995214182383, 0.000676782268767166, -0.20892449143786
1.75013706880281, -0.00106677057809153, -0.217641708529568
1.7600886052705, -0.000913279788103448, -0.22658898666097
1.77016066002954, 0.000720673144829645, -0.227636857642081
1.78000441085038, -0.00132137646135917, -0.230326577685154
1.78995811962138, -0.000679503771691503, -0.2267056546944
1.80000942972812, 0.000220307576497101, -0.243591411851271
1.81014659559098, -0.00144245676274122, -0.23826521764567
1.82005252997517, -0.00151992286896833, -0.244458712339028
1.83003675088177, -8.69575573416308e-05, -0.258667887111781
1.84008894394226, -0.000848330675533584, -0.260910184592505
1.84991372246247, -0.00116756008755747, -0.262640491740085
1.86007972717137, -0.000817050094325766, -0.276491442937111
1.87001319791935, -0.000979925431495322, -0.279577757662381
1.87999121882621, -0.00138442492626485, -0.273991951067788
1.89000573434571, 7.70324277409093e-05, -0.290798558252288
1.9000491613492, -0.00113314443661245, -0.293085430570801
1.91011437388725, -0.00236315074227344, -0.299368941080739
1.91995158907023, -0.000838370359339473, -0.303072316981602
1.93004632591551, 0.000112389375317717, -0.315463207934174
1.9399117410542, 6.28397071403386e-05, -0.323683561362152
1.95001206795852, -0.00153149022063213, -0.333011946817621
1.96010457051244, 0.000517025078408909, -0.33439257452957
1.96996785171291, -0.000841914992073238, -0.343307514299383
1.98003579488607, -0.00076044489999877, -0.35277035198718
1.9900825731001, -0.000815875071462064, -0.354007585672831
1.99990217895395, -0.000820477102205363, -0.361857861693296
2.01009782260517, -0.00071948212267359, -0.376842524134403
2.02005958995333, -0.000586246693011622, -0.379032001660241
2.02998675318634, -0.000885509961758851, -0.392851226680653
2.04006104598262, 0.000321151144125789, -0.393004834546414
2.05008717709257, -0.00080532211842579, -0.409183975713366
2.06006320677741, 0.000443434109297129, -0.411737133084126
2.06998738503527, -0.000864714136286446, -0.433794941769939
2.0800263724481, -0.00168725945962253, -0.422346812165745
2.09000294779621, -0.00107239555405201, -0.454855330182818
2.1000768217873, -0.00122598360425511, -0.454491006833811
2.10992231029099, -0.0018297983535144, -0.459101572931741
2.1200100038828, -0.00112810309525751, -0.481067742951713
2.13001862972146, -0.000973482794762396, -0.48131124889259
2.13994833382499, -0.0012570724577947, -0.500090159815004
2.14994254482836, -0.000819181938991115, -0.507151038836622
2.15999184710385, -0.00126207313009719, -0.522089199357126
2.16995062827276, -0.000605011461725125, -0.523895831201886
2.17995349549657, -0.00133773533985138, -0.550483327837091
2.1899923794012, -0.000434852244183711, -0.561973711382725
2.20005968593025, -0.000523730357042379, -0.561127374264642
2.21002360897594, -0.000835764263429575, -0.582041614593816
2.22000782988254, -0.00146801802950176, -0.598230835141638
2.23000589783148, -0.00121439715471805, -0.604341451298067
2.24001176959216, -0.00159996044450157, -0.625456744758565
2.25001979289102, -0.000219531974179344, -0.644132070391872
2.26002468956444, -0.00278649747174242, -0.659507681127484
2.27002153865122, -0.00206502568810972, -0.664853733306793
2.28000575955782, -0.000969323379156892, -0.692602601625547
2.28997309540893, -0.000463459955522373, -0.69422421855927
2.30002096077692, -0.00214617161061589, -0.709587937040557
2.31003973221976, -0.00160183501316428, -0.724205297675967
2.32002620405077, -0.00151568255870569, -0.750258144958366
2.32997742728372, -0.00195035739071104, -0.767891496502508
2.33998314695929, -0.00133725162143745, -0.786434638457554
2.35003459351238, -0.00153389714349556, -0.80461755863765
2.36003523728506, -0.0017666305638731, -0.815712896023566
2.36998334573004, -0.00286979744097613, -0.841329707851183
2.37996168439828, -0.0019085054214222, -0.847995243564011
2.38996315073266, -0.000957508926425755, -0.873172235776154
2.39998107663457, -0.00179262987515335, -0.895935025386605
2.4100092122469, -0.00115829924451566, -0.915906827921628
2.41996482256145, -0.00136153471372015, -0.940064117440115
2.42999797293823, -0.00224156312032978, -0.956458591948101
2.44002488348165, -0.00213260020204326, -0.98016196994935
2.44996905386885, -0.00199572158370946, -1.00005979450617
2.45997121452727, -0.00241081981868241, -1.0224063998011
2.47002236937198, -0.00242268271398484, -1.05763349716105
2.4799801149378, -0.00249150067904119, -1.07959179523688
2.48997651187002, -0.00245069473337551, -1.09709291019831
2.50000386498445, -0.00265859225325585, -1.12641859934312
2.50999244619715, -0.00225266597827052, -1.14804317475527
2.52000081315797, -0.00134805996881841, -1.1789186624849
2.53002250943915, -0.00195831779465824, -1.20844706030999
2.53999316640007, -0.00137779658722437, -1.24019117359388
2.5500251058573, -0.00390596830638827, -1.26403096359171
2.55999766873837, -0.00303627812239474, -1.29091047474306
2.57001859959078, -0.00282907185216867, -1.32646475632206
2.58002632359039, -0.00405794414627011, -1.35435380118724
2.59001658874711, -0.00399547548547939, -1.38372712705882
2.59998545159895, -0.00340963483894438, -1.41463429105252
2.6099789088833, -0.00387417517322774, -1.44999880195752
2.61999020803799, -0.0047384535125242, -1.48205648314554
2.63001301765909, -0.00510059326338477, -1.51881185917633
2.63999508370189, -0.00320194844827294, -1.55822828482906
2.64997930460849, -0.00497539536428227, -1.58794538066779
2.66000468423665, -0.00361577781796297, -1.6173844452345
2.67002007560197, -0.00480302350269393, -1.66246864926025
2.6800210005771, -0.00321579707416225, -1.7015627103877
2.69000330099514, -0.0053164922541056, -1.74519161192901
2.70000347479331, -0.00450592982658393, -1.78492884927554
2.71001520666296, -0.00596089295575033, -1.82227896120364
2.71999405056381, -0.00612326433710049, -1.85943093798481
2.73001242654579, -0.0041871174192848, -1.9121991502994
2.73998894488151, -0.00589779372757491, -1.96539744060726
2.74999323886876, -0.00735470937175502, -2.00406693859034
2.75998318119378, -0.00758062244351013, -2.04982294111326
2.76998896819812, -0.0064819058349896, -2.0911823300221
2.78000441085038, -0.00736962718323127, -2.14340160828071
2.78999092008074, -0.00838804064421583, -2.1869351030055
2.80000942972812, -0.00754721019381988, -2.23849174801678
2.80999000843158, -0.00844646790097773, -2.29839199588413
2.81999131431761, -0.00787213975542965, -2.34897141232774
2.83000683976348, -0.00983723524571147, -2.39557690655573
2.84000125787367, -0.00912516701805454, -2.45082334284979
2.84999943002093, -0.0092649789491625, -2.51598223582081
2.85999598622914, -0.00885801158225551, -2.57093375525734
2.87001319791935, -0.0114673387846612, -2.62972698736101
2.87999121882621, -0.012814342713927, -2.69202829870755
2.89000573434571, -0.0134163953867941, -2.75370714251505
2.89999824459179, -0.0119465622199221, -2.8226174322416
2.9099899876679, -0.0137175721065758, -2.87138596125019
2.92000021954807, -0.0125414134555959, -2.95539622431528
2.92999880750834, -0.0144442768147135, -3.024313334963
2.94000462833547, -0.0147154610546374, -3.08637718516333
2.94998937695395, -0.015387794047085, -3.1528610944541
2.95999371040158, -0.0153124935444908, -3.23649906889255
2.96998952255356, -0.0170952781527801, -3.31173587933924
2.97999344328606, -0.0186511633084977, -3.39408028993949
2.98999980304422, -0.0169972978734766, -3.47301090913043
3.00000330702098, -0.0193923695365451, -3.53552891221673
3.00999901826351, -0.0205510014652048, -3.62557078787972
3.02000165441083, -0.0204189188824832, -3.70292706087286
3.03000562693885, -0.0213646271961175, -3.78463622061648
3.04000571832066, -0.0217230774193667, -3.87502246428346
3.04999706515493, -0.0233037097029927, -3.97162823934262
3.05999275589204, -0.0253732202223238, -4.05724455425284
3.07000459811, -0.0258961947830645, -4.15473712830553
3.0799927309839, -0.0268286991411808, -4.26003516186451
3.09000294779621, -0.0278717165616705, -4.35693386705948
3.09999650842934, -0.0304870866320093, -4.4560591623365
3.11000080906787, -0.0314771619067252, -4.57173140196529
3.11999466293782, -0.0327859364001321, -4.6695921967479
3.13000363828281, -0.0344833067560025, -4.76862170077256
3.14000693911243, -0.0345620782769688, -4.87027812261538
3.14999981694791, -0.0364640668778811, -4.99128708985567
3.16000583832442, -0.0375795966574901, -5.11435770585359
3.17000532186667, -0.0406482987495645, -5.21568897527135
3.17999358236785, -0.0425268365974101, -5.34949857147285
3.190005436766, -0.0433494860044591, -5.46283996600453
3.19999588945832, -0.0472250530266369, -5.6008704017945
3.20999867030517, -0.0463064017961475, -5.71485593850176
3.21999564412006, -0.0494155649118807, -5.86007798552818
3.23000589783148, -0.050645888362599, -5.996791223563
3.24000013239226, -0.0549388354059747, -6.13210901863111
3.24999704841057, -0.0569166915704604, -6.25943618223349
3.26000246307543, -0.0588187103616817, -6.43154905331804
3.26999981795393, -0.0620369460658023, -6.56464734106526
3.279995146171, -0.0646826107913634, -6.70758506656228
3.29000421164423, -0.0703515294816719, -6.87014148096668
3.30000068984962, -0.071320822890166, -7.01855497791179
3.31000011404039, -0.0750454173002725, -7.19481873660015
3.31999716623034, -0.0777760208078314, -7.3577648820034
3.3299963462566, -0.0820970814850216, -7.51683776379956
3.34000163504945, -0.0848918096019713, -7.69356066470001
3.34999846102084, -0.0908532896820766, -7.86585225837262
3.35999992735521, -0.0951067933238615, -8.04690194747922
3.37000059983632, -0.0965612658972956, -8.2268361444765
3.3800038386795, -0.100400947929563, -8.43713297330764
3.38999610675649, -0.108546017100606, -8.6138188798801
3.39999717920894, -0.111282942808619, -8.8144530431723
3.41000134452198, -0.118877033405894, -9.02829831595638
3.42000326760922, -0.121484286214035, -9.21893821126376
