Frequency Log(Hz), Gain (dB), Phase (deg)
1.99990217895395, -62.133523891861, 6.49501758381457
2.05008717709257, -62.193238714033, 7.66628754410139
2.1000768217873, -62.0883917849441, 6.77160743221609
2.14994254482836, -62.1119344821408, 7.1510001694341
2.20005968593025, -62.0803647255409, 8.13466839532599
2.25001979289102, -62.0543220365035, 7.11889892514525
2.30002096077692, -61.811378531543, 9.48844101545401
2.35003459351238, -62.0547592972816, 9.65018991353258
2.39998107663457, -61.965964020022, 11.3647510218204
2.44996905386885, -61.8884509989257, 11.9248300279851
2.50000386498445, -61.898000791298, 14.7045582752087
2.5500251058573, -61.806700808508, 16.231673502435
2.59998545159895, -61.4935450825058, 18.1971896626009
2.64997930460849, -61.4882384400887, 20.7418272787065
2.70000347479331, -61.4591182216698, 23.317261695065
2.74999323886876, -61.4606895705791, 24.651287509612
2.80000942972812, -61.0125286733261, 27.5722040847387
2.84999943002093, -60.927559066046, 30.7207053496106
2.89999824459179, -60.5412959989298, 32.1937331148589
2.94998937695395, -60.2981229672288, 35.5594194631882
3.00000330702098, -59.9573822721622, 38.6868739688464
3.04999706515493, -59.32601067805, 43.2290684972994
3.09999650842934, -58.9043218511811, 46.6124008880124
3.14999981694791, -58.4201308055309, 49.3450867555205
3.19999588945832, -57.8635462215992, 52.9618676835783
3.24999704841057, -57.1146420565595, 55.6962243895654
3.30000068984962, -56.5248482328789, 58.4617368968412
3.34999846102084, -55.6782062661085, 61.6025592012764
3.39999717920894, -54.8523744390064, 63.9783317917781
3.44999775711607, -54.037059708404, 66.5864898260384
3.49999746978964, -53.2003290263376, 68.6587630882384
3.55000230764832, -52.2263434699485, 70.4480454895964
3.6000006915169, -51.4072692443272, 71.9822619898562
3.65000194238805, -50.5964860366351, 73.7377520744285
3.69999943970551, -49.6006173239335, 75.4392468559143
3.75000043149688, -48.6295501159799, 77.1284444310881
3.7999998142457, -47.6745636817239, 78.5206639113272
3.84999943002093, -46.7290464311925, 79.3669214004098
3.90000079057144, -45.7963176745036, 80.2198421560478
3.95000072260443, -44.8321492376934, 81.0151159923842
3.99999926235039, -43.8512459312787, 81.9270941984906
4.05000066999145, -42.8573647566482, 82.7056707878682
4.09999972124884, -41.9203252392518, 83.2116443026878
4.14999981694791, -40.9376271773536, 83.8412460344763
4.19999971751092, -39.9432856824543, 84.5032990932299
4.25000046015857, -38.945597257246, 84.905835460979
4.29999967627841, -37.9975352958434, 85.1195227047697
4.35000026771681, -36.9697684183707, 85.57217311121
4.40000039965217, -35.9898073171465, 85.7943516117962
4.44999990978314, -34.9806067760829, 86.1768379293141
4.50000002787886, -33.9909768474723, 86.2821317463488
4.5500000277616, -32.987597031822, 86.3705019612017
4.60000018352825, -31.9778646403054, 86.4068243964771
4.65000013140911, -31.0027303057338, 86.5768146348175
4.69999984321598, -29.9967124238445, 86.3965094904753
4.7500000718683, -28.9936353492358, 86.5221904225977
4.80000013476521, -27.9973433804979, 86.3567353884342
4.8500000013479, -26.991053825937, 86.2287364955343
4.90000002677911, -25.9863953363231, 85.9866240321182
4.95000004187376, -25.0036296641693, 85.6565844872328
5.00000007128752, -24.0098330696645, 85.4091892351732
5.04999994902654, -23.0150933121177, 84.9759614660399
5.10000004252948, -22.0125203430226, 84.4616817417506
5.14999996011875, -21.0293171528489, 84.0916062986465
5.19999997271323, -20.0225793733851, 83.4524025967926
5.25000000526039, -19.0252165225422, 82.8130397817206
5.29999998035002, -18.0197718108177, 82.0848255076141
5.34999999671289, -17.0253074013024, 81.1952471376348
5.39999999709807, -16.0277973494727, 80.1992832356469
5.44999998153852, -15.0228667396879, 79.1484450325865
5.50000002787886, -14.0270947267295, 77.815503606233
5.5500000277616, -13.0234661990796, 76.4337091172979
5.59999998033263, -12.0238914098886, 74.8826080990259
5.64999999558539, -11.0142414967327, 73.0984984576423
5.70000000462006, -10.0265761284577, 71.0029635868669
5.74999999994255, -9.00464414242779, 68.605480975193
5.80000000655743, -8.00958128316761, 65.9372828502422
5.8500000013479, -6.99407700483335, 62.9112856174382
5.90000000131934, -5.98922950150903, 59.3230523189991
5.94999999649168, -4.98525681471276, 55.1558189925914
5.99999999039388, -4.02937172447684, 50.4069376064978
6.05000000309894, -3.08239954411968, 44.798071692099
6.0999999943374, -2.20297041610987, 38.3083692778535
6.15000000306999, -1.41402474987113, 30.8468298153831
6.19999999823345, -0.766351326845017, 22.3534131770392
6.25000000526039, -0.311873177767828, 12.9673969508641
6.30000000062145, -0.105138654029697, 2.98332940559553
6.34999999671289, -0.168938692431755, -7.13605854069
6.39999999709807, -0.500772876155744, -16.9034618782141
6.45000000306514, -1.04506144786719, -25.9036531451825
6.50000000229804, -1.78503977866133, -33.9908474333605
6.54999999926294, -2.62244269369007, -41.0094503941983
6.60000000065219, -3.5661030006364, -47.0799857155195
6.65000000011285, -4.53643275680685, -52.1736689880633
6.70000000058496, -5.50615623191983, -56.7688440384542
6.74999999994255, -6.57067902793825, -60.4191788892965
6.80000000014704, -7.59031311357591, -63.6564423362505
6.8500000013479, -8.61321683575585, -66.5178509744666
6.89999999877336, -9.69019902743824, -70.0393825767861
6.95000000102989, -10.8052045264566, -72.4751142285422
7.00000000050558, -11.8569726980009, -74.1651512122576
7.04999999949412, -13.0128503534768, -76.2290554008033
7.10000000076301, -14.1185575552838, -77.2509117630648
7.15000000020657, -15.3664773430558, -76.9755464911843
7.19999999950946, -16.6886028322063, -77.9642559880018
7.24999999957415, -18.1936621078667, -77.7902259138093
7.29999999960788, -20.3709225676686, -71.5320317478951
7.30102999566398, -20.2008362994873, -71.611358049914
