Frequency Log(Hz), Gain (dB), Phase (deg)
1.99990217895395, -60.8290567297251, 4.71468644476405
2.01009782260517, -60.8528479479317, 3.49414235975677
2.02005958995333, -60.7486903834317, 3.98292199286834
2.02998675318634, -60.8698754450756, 4.06077808645676
2.04006104598262, -60.6635920006245, 3.86229611367291
2.05008717709257, -60.9136238571438, 4.96582193782653
2.06006320677741, -61.0768527509056, 5.2843757353263
2.06998738503527, -60.795220370934, 4.77342762751288
2.0800263724481, -60.8306930935496, 4.44541284793514
2.09000294779621, -60.7827043132179, 4.71860018997079
2.1000768217873, -60.9387561439938, 4.45110680049699
2.10992231029099, -60.733643724023, 5.23413305960462
2.1200100038828, -60.7565716625758, 4.71340954833901
2.13001862972146, -60.9269868207969, 3.93236495563531
2.13994833382499, -60.7133053695713, 6.28345345063634
2.14994254482836, -61.0042462886362, 4.91615678892523
2.15999184710385, -60.943059066738, 6.93499661503692
2.16995062827276, -60.9996313725989, 5.16160212865179
2.17995349549657, -60.9102118747728, 5.72406113025779
2.1899923794012, -60.8174924538027, 6.36871361339316
2.20005968593025, -60.835483172883, 6.22044166843276
2.21002360897594, -60.752386705239, 4.58746275477314
2.22000782988254, -60.7900340990456, 8.09311303501816
2.23000589783148, -60.6945978560954, 6.95702394278728
2.24001176959216, -60.7818433642886, 7.18052879213789
2.25001979289102, -60.8749507486011, 6.98999036524911
2.26002468956444, -60.7681957227068, 7.04496549365185
2.27002153865122, -60.8621801413598, 7.30292865253465
2.28000575955782, -60.5081728764275, 15.3346375154182
2.28997309540893, -60.9091925667305, 7.76509421918354
2.30002096077692, -60.8098675249062, 8.12883045107029
2.31003973221976, -60.8239042940002, 8.39029543899015
2.32002620405077, -60.7992550636381, 8.22382721703656
2.32997742728372, -60.7439881720674, 7.5483435462309
2.33998314695929, -61.0308645298975, 7.76384821162695
2.35003459351238, -60.93156552702, 9.4155468205884
2.36003523728506, -61.0207836634425, 11.6796046350569
2.36998334573004, -61.0736077554591, 8.75049416744354
2.37996168439828, -60.9104315249365, 9.4638729408567
2.38996315073266, -60.8284181433154, 9.49834300211248
2.39998107663457, -60.9545652494857, 10.921398830937
2.4100092122469, -60.6813504468064, 10.8176961152835
2.41996482256145, -60.8364733667167, 11.3840629929237
2.42999797293823, -60.7811660894571, 10.1051135718177
2.44002488348165, -60.830097477573, 10.5179372699532
2.44996905386885, -60.8118805572687, 11.054685442681
2.45997121452727, -60.7962165413767, 12.3239129814644
2.47002236937198, -60.6926450556175, 12.3029232510314
2.4799801149378, -60.8249882395349, 11.9886227377094
2.48997651187002, -60.8303708921593, 11.9319918108234
2.50000386498445, -60.6903249249143, 12.5043083076733
2.50999244619715, -60.9387737050973, 13.9310524442874
2.52000081315797, -60.6825380638515, 14.0329544545754
2.53002250943915, -60.8846554593145, 13.8815022912445
2.53999316640007, -60.4687261199979, 13.1203529786151
2.5500251058573, -60.7076009174907, 13.5717879136918
2.55999766873837, -60.6288435969339, 14.4575359132261
2.57001859959078, -60.6008807491739, 14.9536347716462
2.58002632359039, -60.5344883201085, 14.4514651296605
2.59001658874711, -60.712698211495, 17.2973937557998
2.59998545159895, -60.5868784681601, 15.1740380986338
2.6099789088833, -60.8381526946063, 14.8944248213992
2.61999020803799, -60.321787988838, 16.1875615700568
2.63001301765909, -60.468332091619, 16.5077058870139
2.63999508370189, -60.7397066503581, 17.4028308100651
2.64997930460849, -60.3940623846588, 17.2907501842309
2.66000468423665, -60.610117196382, 17.6050282943165
2.67002007560197, -60.6248339031831, 19.0916584927351
2.6800210005771, -60.4209399365812, 19.3787448501333
2.69000330099514, -60.1395248855931, 19.2417037669227
2.70000347479331, -60.2464862581097, 19.4594723153828
2.71001520666296, -60.2657191401428, 20.6505498289764
2.71999405056381, -60.3814270070113, 20.6934437584789
2.73001242654579, -60.3687750224072, 21.0568419453409
2.73998894488151, -60.1852089646927, 21.7556935157639
2.74999323886876, -60.1571573953635, 21.1101703932695
2.75998318119378, -60.2411146257231, 22.6517048880327
2.76998896819812, -60.2430969281524, 22.729073288646
2.78000441085038, -60.1047411222534, 23.7397715924541
2.78999092008074, -60.1069641623777, 25.3430817206737
2.80000942972812, -60.1260862201419, 22.6259518569055
2.80999000843158, -59.9842795113146, 24.0919934459243
2.81999131431761, -59.7946754122381, 26.0937446074416
2.83000683976348, -59.9640621103666, 26.5139246754201
2.84000125787367, -59.8560319660581, 27.652378125249
2.84999943002093, -60.0624652991281, 26.8748659959515
2.85999598622914, -59.8981949370429, 27.3422817179639
2.87001319791935, -59.8003588049459, 27.8595437747107
2.87999121882621, -59.9445311207098, 27.4443211965331
2.89000573434571, -59.8512739219669, 28.4103351595416
2.89999824459179, -59.7647017911098, 29.2153807289217
2.9099899876679, -59.8489100888034, 29.9139681486392
2.92000021954807, -59.6560421558987, 32.3602237021909
2.92999880750834, -59.3904729950967, 30.4938504780297
2.94000462833547, -59.3878172466218, 32.4350607946365
2.94998937695395, -59.6748046840101, 32.3001818259271
2.95999371040158, -59.3149369137799, 32.3453264946909
2.96998952255356, -59.3998028283786, 34.5614929829946
2.97999344328606, -59.1244535679878, 35.0164769527047
2.98999980304422, -59.2262725629222, 34.1735363688906
3.00000330702098, -59.0568061502501, 34.9756176995169
3.00999901826351, -59.0936942839777, 36.2142006249155
3.02000165441083, -58.9969221382977, 36.707513502935
3.03000562693885, -58.993306486739, 38.4233814770811
3.04000571832066, -58.8898150326167, 37.9242372255254
3.04999706515493, -58.7756673481309, 38.9162395154414
3.05999275589204, -58.4369879911944, 40.0907417409509
3.07000459811, -58.6556717618615, 40.0133529688497
3.0799927309839, -58.4128780707228, 40.6471129126889
3.09000294779621, -58.2842603803969, 41.4405417466915
3.09999650842934, -58.3718561255614, 41.3665749742573
3.11000080906787, -58.1468046780944, 42.893326569353
3.11999466293782, -58.2101477268099, 42.7635274668054
3.13000363828281, -58.1946213518493, 44.410661759869
3.14000693911243, -57.8588320924079, 44.7507310437478
3.14999981694791, -58.049530271628, 44.451246336206
3.16000583832442, -57.825387448437, 45.9127351662232
3.17000532186667, -57.6013498711183, 45.9876724996817
3.17999358236785, -57.5018571467523, 46.186182025878
3.190005436766, -57.35234096203, 47.1356252690767
3.19999588945832, -57.3204644502112, 49.3860626930949
3.20999867030517, -57.1618785232385, 49.0361568891691
3.21999564412006, -56.9855808848628, 49.3361628065794
3.23000589783148, -57.0234547692747, 50.068146885642
3.24000013239226, -56.951737810018, 50.3439018007318
3.24999704841057, -56.7666388304428, 52.2022568598951
3.26000246307543, -56.4704276323755, 51.9418799834659
3.26999981795393, -56.5006838134107, 52.8691954824451
3.279995146171, -56.3059813106486, 54.1952306173971
3.29000421164423, -56.2156674130093, 53.8856765262517
3.30000068984962, -56.1316831643468, 54.9577048223655
3.31000011404039, -55.9113165596863, 54.6984917593871
3.31999716623034, -55.8851462812831, 55.5595551102218
3.3299963462566, -55.6273297244833, 55.9690872869357
3.34000163504945, -55.5692449370354, 56.9241919380173
3.34999846102084, -55.3200625012686, 57.9467714331693
3.35999992735521, -55.1780820218246, 58.2449653071423
3.37000059983632, -54.9913639603654, 58.2277608199638
3.3800038386795, -54.977103317163, 59.0235972817022
3.38999610675649, -54.7647987979324, 59.9237020075784
3.39999717920894, -54.680960575626, 60.3516887065712
3.41000134452198, -54.4975237806568, 60.8170607651484
3.42000326760922, -54.2835093780419, 61.48973849531
3.42999797293823, -54.1285069137004, 61.5560772055005
3.44000285615304, -53.9218626343572, 62.125478924242
3.44999775711607, -53.8511053789173, 63.1205502800104
3.45999926429037, -53.801336086144, 63.821404083662
3.47000181218862, -53.4510277499158, 63.7820041201598
3.48000020519702, -53.3248714883692, 65.4259870788933
3.4900026891692, -53.1201574712767, 64.8189897545176
3.49999746978964, -53.054218540768, 65.3760221406875
3.50999869589289, -52.813339453609, 66.4717228214219
3.52000081315797, -52.6895890005682, 66.4393450633995
3.52999863661142, -52.4565244428553, 67.0012224664701
3.53999899894863, -52.3374009050546, 66.9485726453641
3.55000230764832, -52.1402640507052, 67.7680590673103
3.55999766873837, -52.0505830162952, 67.7888724601898
3.57000227037735, -51.8845235787237, 68.7551500194401
3.57999972789045, -51.6792371339763, 69.1444783764235
3.59000099441034, -51.5308601335858, 70.000460675411
3.6000006915169, -51.3547173432494, 69.8573139612698
3.60999876643031, -51.1472124405606, 69.7880916221062
3.61999991066602, -50.9466626743123, 70.7284395666216
3.62999879536044, -50.7773958818976, 71.3828431152292
3.63999971664584, -50.5415498934694, 71.3624700060325
3.65000194238805, -50.4452371736202, 71.6520039830169
3.6600002598612, -50.2400852278947, 71.9810414728185
3.66999845761835, -50.0271056515659, 72.8370109362103
3.67999987473582, -49.9403330384377, 73.4893741068432
3.68999917191597, -49.6634245711175, 73.0965572232169
3.69999943970551, -49.4931294432214, 73.9635203971688
3.70999943392397, -49.3109273434722, 73.7616477430304
3.72000175758472, -49.1536419058083, 74.0795687009744
3.73000112939508, -48.9512150738709, 74.3060282349556
3.73999998519068, -48.7390795430989, 74.9302149712504
3.75000043149688, -48.6311794390802, 75.0394056658859
3.76000075365051, -48.3503858569734, 75.0800595616085
3.76999927162233, -48.2198592832496, 75.8976660545399
3.7800010546204, -47.9841190649935, 76.1887435192285
3.79000075973549, -47.8281646635384, 76.183927436316
3.7999998142457, -47.6754346219754, 76.3513676017219
3.80999940525344, -47.4849669388577, 76.6990975197876
3.82000049721633, -47.3023777553482, 77.266094163991
3.83000085729261, -47.1091669752078, 77.2226109459329
3.84000125787367, -46.8838877916077, 77.7618080430817
3.84999943002093, -46.6888301997528, 77.6218919838428
3.85999877785404, -46.5299371759784, 78.1348334027455
3.86999955780308, -46.4129486293941, 78.5234606749067
3.87999921680932, -46.143420232699, 78.4220357305548
3.89000052382276, -45.9650590026786, 78.7580575722692
3.90000079057144, -45.7566643977741, 79.0285587145827
3.90999993987657, -45.5755346381437, 79.1070306343044
3.92000021954807, -45.3707080287883, 79.3747063069966
3.93000118355219, -45.1628696540065, 79.3036027597155
3.93999998444321, -44.9881787395337, 79.7457484456819
3.95000072260443, -44.8330792093918, 79.7575080510289
3.96000036280632, -44.5837521201645, 79.8842129656402
3.97000035756839, -44.4493174479933, 80.2087468211731
3.97999979628936, -44.2407414675538, 80.6847229716865
3.98999980304422, -44.0546576622251, 80.883861072687
3.99999926235039, -43.8214005682205, 80.8949226519503
4.00999901826351, -43.6165479182504, 80.7505552279771
4.01999972309296, -43.431606263292, 81.2442489137835
4.02999996489922, -43.2393608687666, 81.3933925225848
4.04000018516678, -43.0552517484075, 81.4412438343624
4.05000066999145, -42.8911945289816, 81.7878452563528
4.05999980149489, -42.6875659397336, 81.7972301417054
4.06999943425922, -42.4845647985861, 81.7663975294092
4.07999945948522, -42.2912413878147, 82.1703364308579
4.08999966016467, -42.1191178440394, 82.2283364856095
4.09999972124884, -41.9128830522518, 82.4833463397154
4.10999923923137, -41.6876425587217, 82.8342263719274
4.11999926527822, -41.4748197082867, 82.8144727170112
4.13000063993298, -41.3011906924743, 82.8296336286981
4.13999961388398, -41.0914222395309, 83.0386282210478
4.14999981694791, -40.9302981139487, 83.3014018839373
4.16000024189028, -40.7224741019517, 83.2489024946602
4.16999985281723, -40.5315507212174, 83.3932702350792
4.18000026315334, -40.3286074191457, 83.4703654879818
4.19000021386719, -40.1360024409297, 83.5729637331088
4.19999971751092, -39.9394657201959, 83.7922830845916
4.20999991727272, -39.736803465975, 83.9264777578371
4.22000051846608, -39.5190635349626, 84.0135793946098
4.22999994365738, -39.4065906349757, 84.1882495525647
4.24000013239226, -39.168689582102, 84.1500354243066
4.25000046015857, -38.9568628298197, 84.3267649092036
4.26000024036396, -38.7590105953537, 84.3794241354961
4.26999981795393, -38.5746770090024, 84.4236103325305
4.28000045289683, -38.3448040397529, 84.4835844724931
4.29000006294166, -38.1635841464191, 84.627734753402
4.29999967627841, -37.9681301902914, 84.8034305617423
4.31000011404039, -37.7720746899633, 84.7332316861919
4.32000007009975, -37.58408365567, 84.971382447765
4.33000012995228, -37.3625292139011, 85.0312850036817
4.33999978627585, -37.1680310103594, 85.1354287873166
4.35000026771681, -36.9791722680661, 85.0544701196571
4.35999992735521, -36.7528891121597, 85.1693111605648
4.36999973714728, -36.5680230887991, 85.2578103920659
4.37999962343549, -36.3633077931587, 85.2262824500938
4.39000022608364, -36.1884786612268, 85.4188313785475
4.40000039965217, -35.9821861206902, 85.4904692917402
4.40999977095989, -35.7730423938376, 85.5290043109881
4.42000019213064, -35.5892016452491, 85.5834646668344
4.43000022705599, -35.3737599587718, 85.5344827548306
4.43999991909148, -35.1736755843291, 85.5970360607458
4.44999990978314, -34.9906085319512, 85.7339646399536
4.45999996551124, -34.7875457642369, 85.6186533217363
4.46999975641676, -34.5867094277951, 85.7858264160551
4.48000020519702, -34.3974884115287, 85.8751200633452
4.49000007151029, -34.2025187237214, 85.9618254245033
4.50000002787886, -33.9911145183334, 85.8650695701616
4.50999994582125, -33.7709612069507, 85.9299173350324
4.52000020242138, -33.585396371087, 86.1108216784223
4.52999983028398, -33.392885249783, 86.0032862967721
4.54000016544894, -33.1784996061427, 86.0586576185301
4.5500000277616, -32.995543264731, 86.0604399385267
4.55999989674078, -32.7991765814977, 86.2401583159712
4.57000009310251, -32.5729523891606, 86.0739548336427
4.58000025982042, -32.395416870759, 86.0828654540949
4.58999995476798, -32.2020925611089, 86.2376380918762
4.60000018352825, -32.0060892444882, 86.2950808954227
4.60999975928383, -31.8007142089315, 86.247864983647
4.61999991066602, -31.5974658988215, 86.2177106792254
4.63000021761126, -31.3953719954322, 86.2888435340836
4.64000017993751, -31.1880268327251, 86.2866653048463
4.65000013140911, -30.9997815403108, 86.3581963078571
4.65999981742117, -30.8019729686934, 86.3221038540238
4.67000018709664, -30.5944208544616, 86.3008274364237
4.67999987473582, -30.400721827102, 86.2677918946202
4.68999999773495, -30.2069815759386, 86.2141913961529
4.69999984321598, -29.9887693957773, 86.3759118615289
4.70999982824942, -29.7910324961088, 86.3381024647151
4.71999983084231, -29.5965181558851, 86.2892635459799
4.72999999966384, -29.4050208366308, 86.2422194904064
4.73999998519068, -29.2157446822206, 86.2580982620669
4.7500000718683, -29.0148498812438, 86.291796630248
4.7600000507659, -28.8147084595062, 86.2453964639645
4.76999995850858, -28.5903702953381, 86.2409107168986
4.78000004774634, -28.4079272276945, 86.2913211387835
4.79000010376545, -28.2071182719515, 86.2550791003541
4.80000013476521, -27.9933040056873, 86.142568647701
4.810000031701, -27.8044574298658, 86.098020388065
4.81999988502912, -27.6046791713862, 86.0795631072271
4.82999995991487, -27.4039178637409, 86.0467945155931
4.84000008860648, -27.1920151220117, 86.0277536337816
4.8500000013479, -27.0095118504478, 85.9967148435405
4.85999989449898, -26.8003205226311, 85.9831582754312
4.87000010341596, -26.597691571049, 85.9126721186686
4.88000001659953, -26.401512662298, 85.8772509176508
4.89000000276703, -26.1991872831493, 85.8297630274496
4.90000002677911, -25.990230384408, 85.7836531051563
4.90999993987657, -25.8004887381425, 85.8535009024724
4.91999997640922, -25.6099234070513, 85.7328156786982
4.92999999553189, -25.4155341794776, 85.6543254253158
4.93999998444321, -25.2011029473996, 85.6102429847674
4.95000004187376, -24.9995285736266, 85.608469295911
4.95999991931584, -24.8200350155826, 85.5057858088195
4.96999992417298, -24.6045130455362, 85.5197256193229
4.98000000805454, -24.4082779581915, 85.3130965064043
4.99000000998903, -24.1932586735234, 85.370154438017
5.00000007128752, -24.0101076905205, 85.3050000201756
5.0100000064182, -23.8113413473696, 85.2257205369577
5.01999991622514, -23.6214498349819, 85.1595971854991
5.02999996489922, -23.4074924989369, 85.0682844214736
5.0400000007271, -23.2094867886787, 84.9956759857209
5.04999994902654, -23.0020486612666, 84.9170792993905
5.05999997763349, -22.8172525599785, 84.8195361228475
5.06999995064706, -22.6128171474946, 84.7330242991711
5.07999996411862, -22.4048326122918, 84.6373874395097
5.08999998892895, -22.2169099302734, 84.5604513203336
5.10000004252948, -22.0271240023189, 84.4217254796412
5.11000002415033, -21.8170818360575, 84.3946463050192
5.12000003233021, -21.613836306957, 84.287579470297
5.13000004026053, -21.4030472166369, 84.1434275728855
5.14000005340117, -21.2173301405859, 84.1171277797298
5.14999996011875, -21.0288410349058, 84.0623207053561
5.15999996206668, -20.8152418186722, 83.8302355891344
5.1699999895443, -20.6202790693217, 83.6843213534744
5.17999999592389, -20.4340788035126, 83.6840490619158
5.1899999527206, -20.2142375874569, 83.4757415507619
5.19999997271323, -20.0260164306053, 83.3874056812528
5.21000004196928, -19.8240688269362, 83.27590029683
5.22000003103394, -19.6299700358304, 83.1558874118343
5.22999994365738, -19.4262027825324, 83.0104616830252
5.24000001601868, -19.2118974401553, 82.8703593623412
5.25000000526039, -19.0191114771781, 82.7593434622213
5.26000001809219, -18.8129370265329, 82.6909391121789
5.27000003516628, -18.6402592993553, 82.4941633919837
5.28000002836115, -18.4196377977203, 82.3491005147009
5.28999995922359, -18.2257896955632, 82.1537619179669
5.29999998035002, -18.0222083214253, 82.0249614737929
5.31000001499042, -17.827091662112, 81.9311270756368
5.31999997330442, -17.6306272105486, 81.6677143453807
5.33000003536029, -17.4201079179214, 81.4826531115484
5.33999997115356, -17.2317937384279, 81.3563216002453
5.34999999671289, -17.0241169134588, 81.1989731105938
5.36000001563362, -16.8384799584413, 81.0085526264531
5.36999999595417, -16.6336269426267, 80.8569038619624
5.37999996065652, -16.4302140204464, 80.5252563010289
5.38999997892511, -16.2298392539075, 80.4206505234345
5.39999999709807, -16.0352572809023, 80.1835428944869
5.41000000699456, -15.8302733146128, 80.0622352048224
5.42000003835614, -15.6408834993114, 79.8321397279414
5.43000000164474, -15.4329756867544, 79.5311713541407
5.43999999251826, -15.2285335392336, 79.2841242362733
5.44999998153852, -15.0309468749059, 79.0907744514349
5.45999996551124, -14.8338075667247, 78.8921001857012
5.47000003052024, -14.6397497620974, 78.6461981124749
5.48000000429903, -14.4333015944469, 78.4152651265027
5.49000000606861, -14.2273080356266, 78.16625475264
5.50000002787886, -14.0182559251558, 77.8580320137892
5.51000000831757, -13.8281101949107, 77.7130567816164
5.52000001920024, -13.6330429156277, 77.3309956765121
5.53000000933458, -13.4388507169822, 77.0069873150497
5.5399999904741, -13.2275882735196, 76.7744020538313
5.5500000277616, -13.04056852329, 76.4245464142413
5.5600000081406, -12.8281831829489, 76.12963264633
5.56999998423848, -12.6365546524556, 75.8568138294551
5.57999999385552, -12.4368933722737, 75.4364562154552
5.59000000675015, -12.2257523092524, 75.1064305074305
5.59999998033263, -12.0286546282924, 74.8583919718067
5.61000000749686, -11.8183953349262, 74.5195870303363
5.62000000769121, -11.6351954993637, 74.1664220280887
5.62999998056978, -11.4273808878628, 73.7116066889162
5.6399999946209, -11.2341269978329, 73.4079270873672
5.64999999558539, -11.0231127715683, 72.9732775600199
5.65999999439724, -10.8229005829665, 72.6634184432389
5.67000001414912, -10.6231342746877, 72.247274252984
5.68000000149394, -10.423772223335, 71.7934597194185
5.68999999773495, -10.2299863516851, 71.3730905570173
5.70000000462006, -10.0161851784331, 71.0324587475778
