Frequency Log(Hz), Gain (dB), Phase (deg)
-0.00971057074838073, -61.8900168938442, -1.14434093850237
0.0104928153399063, -61.8045461318448, 1.48745626109089
0.0104928153399063, -61.3846115328743, 2.19876780154018
0.0297979705352929, -61.9441565646939, 1.46747701980105
0.048281376229306, -61.9689163017627, 3.35745104296797
0.048281376229306, -62.1407371997919, 1.50435407976708
0.0660101431897376, -61.9653159360088, 0.370126905501073
0.0660101431897376, -62.0490187420897, 1.36916463623823
0.083043482488518, -61.734296556576, 1.46406266837755
0.083043482488518, -62.2680023422342, 1.17170465602661
0.0994338986766873, -61.4734550882531, 0.144758860329394
0.115228165859919, -62.0408001355395, 0.693351690583293
0.115228165859919, -61.8146613552086, 0.867835995743555
0.130468132416656, -61.828144261699, -0.508711457264051
0.145191389237362, -62.1206035019481, 2.21407099383331
0.145191389237362, -61.8625939381588, 0.354841385211632
0.159431828351973, -62.0904352277515, 0.441480848358991
0.173220112837606, -61.6455113438187, 2.107490468332
0.186584074395587, -61.9963547802766, 0.162371744854109
0.186584074395587, -61.8643495169178, 1.38779311138884
0.199549051559955, -61.7513429017006, -0.161633232430372
0.212138178867976, -61.677047024657, 1.37760093463857
0.224372635284987, -62.0305925419228, 3.13927170689915
0.224372635284987, -61.6491869878217, 1.45211885275959
0.236271858584695, -61.904850178911, -0.131617231288899
0.24785373113451, -62.1489683827843, -0.780924028182868
0.259134741544199, -62.1374535163309, 0.823387468743338
0.270130125845662, -61.838312939217, 3.57381516390857
0.280853991237435, -61.9012721578209, 0.795755318117829
0.2913194249156, -61.9498527852547, 0.921015781360835
0.301538590097287, -61.9780300554441, 0.105932293097025
0.311522811003887, -62.1169204282522, -0.577736152075358
0.321282648293044, -61.8086416894621, 0.749863075191566
0.330827966199274, -61.7436412564054, 1.60708215813519
0.340167992453418, -61.8846665517238, 2.18321913658325
0.349311371893287, -61.9838481177013, 1.04553418425901
0.358266214546214, -61.62795311254, 1.19889867431988
0.367040138853719, -61.9125474452588, 2.17806988229155
0.384073478152499, -62.0850793242023, 1.00317455117782
0.392346004118489, -62.0855236623949, 0.772472401680643
0.400463894340668, -62.025656439096, 0.109445730744721
0.408432824011944, -62.0387850156983, 0.532980680357761
0.4162581615239, -61.8972722111324, 1.28024652108393
0.431498128080637, -61.8009604748255, 1.71071470788836
0.438922146159844, -61.7777123230249, 2.02522873673946
0.453399969528467, -61.9151284770995, 1.95803984959219
0.460461824015954, -61.6407745976492, -0.801836138927057
0.467410683971282, -61.5514841005752, 0.312433488364109
0.480983491160556, -62.0147396752128, 1.37852454047807
0.487614070059569, -62.2219645405551, 1.96319528469555
0.500579047223936, -61.7364227292358, 0.388234455024767
0.506919225254955, -62.0577994347476, -1.76728089436966
0.519328483236775, -61.9604410388867, 1.22898518601074
0.531392994638156, -62.0501286559007, 0.888192385070081
0.537301854248676, -62.0653676844964, 0.493613143479873
0.548883726798491, -62.0455119268305, 0.881664442154982
0.56016473720818, -61.8422861873513, 2.59604086220842
0.571160121509644, -61.8684386000083, 0.529740626749299
0.581883986901417, -62.0099046681936, 0.0294903037653571
0.592349420579582, -61.7627153178881, 0.988519757781585
0.597489060231993, -62.1057148399325, -0.685608607541142
0.607589387136319, -61.8510334749957, 2.25558166294151
0.622312643957025, -62.0495099698235, 0.267085830514198
0.631857961863255, -61.8659539520204, 1.56938029494734
0.641197988117399, -61.7867499075927, 1.00822273556933
0.650341367557268, -61.7532151504802, 1.30310447626199
0.659296210210195, -62.0785308446777, 0.210213081698566
0.6680701345177, -61.7405559478459, 0.183675453042696
0.680907359222872, -61.7639924152481, -0.187075093641613
0.689259433587638, -61.8587037098574, 1.64119830952581
0.70149389000465, -61.9053675653589, -0.0115535724151205
0.709462819675925, -61.6486487290464, -0.958464798801563
0.72114857800112, -61.890137244537, 0.763139306656196
0.728767974871312, -61.8507902130596, -0.289898807149474
0.739952141823825, -61.7297350972439, -0.226455710034901
0.75085550483415, -61.823141441064, 1.51519309502742
0.761491819679935, -61.7865994006405, 0.888942734864822
0.768440679635263, -61.8006302644749, 0.913777609576624
0.778659844816949, -61.778883008831, 0.458975758761827
0.78864406572355, -61.9193439272789, 0.339432937042513
0.798403903012706, -61.7850209171728, 1.14658077286218
0.811084934771795, -61.8304166557638, -0.213400550193373
0.820358478900756, -61.9330848041898, 0.243404864327864
0.829438136752675, -61.8795732241741, 1.2492430366226
0.841256402929974, -61.6847816339263, 1.04682065111451
0.849913722462473, -61.7759328970836, 0.329144412202316
0.861194732872162, -61.8741385313667, -0.717726736593674
0.869467258838151, -61.819546006088, 0.695210782132803
0.880257738921658, -61.8970165319322, -1.32916184439726
0.890786605665283, -61.9140356477072, 1.79308853661224
0.901066244909854, -61.8194957450465, -1.21472716420689
0.911108183203994, -61.9114240459394, 0.129871620223932
0.920923165497593, -62.0021930333878, 1.80524414254308
0.930521224248129, -61.8065981782022, 0.508332929619368
0.939911741054199, -61.6113819210013, 2.63609212002983
0.949103501765427, -61.9383433385828, -0.335614070700106
0.960326205874176, -61.767502698152, -0.716940190198551
0.969100130181681, -61.8265485311756, 1.38586956812425
0.979823995573454, -61.6819075340561, -0.144297730132283
0.990289429251619, -61.8500159558475, -0.081311728930172
1.00050859443331, -61.814481184481, 1.19015723760941
1.01049281533991, -61.8666850915759, -0.206748343552046
1.02025265262906, -61.8307132709185, 1.20368279223633
1.02979797053529, -62.0054153549629, -0.107854680035043
1.03913799678944, -61.7998365834809, 0.331712805405213
1.05008717709257, -61.7744024077147, 1.42350304324297
1.06076708777737, -61.6817345395952, 0.083821954062912
1.06947067529924, -61.9668858639976, 1.09496169657013
1.07968984048093, -61.832683450447, 0.641014192634182
1.08967406138753, -61.7338381338495, 0.00555642430147899
1.09943389867669, -61.8556916521405, 2.85857855579459
1.11054990358215, -61.8583722441792, 0.224490122687737
1.11985657004199, -61.5477220855099, 2.17659107983274
1.13046813241666, -62.0144420914911, -1.50851761507964
1.13936184557664, -61.7592852875742, 1.3757890513542
1.14951276302001, -61.9068370741517, 0.578540468680271
1.15943182835197, -61.7954297069483, 3.49715563324127
1.17049725450213, -61.8463310247125, 0.670178066256579
1.17995349549657, -61.9375139730514, 0.993374739821262
1.19051436802402, -61.9135002361965, 1.07817584067072
1.19954905155996, -61.9770087127496, 0.872769844426904
1.20964937846428, -61.6873726811802, 0.474782291596536
1.21952013249058, -61.8924587790628, 1.69240790339443
1.23036299897417, -61.6448122158009, 0.432811997649234
1.23977896632639, -61.7234868506727, 0.713315769745711
1.25013349742941, -61.9944509818226, 0.310177375368189
1.26024689191357, -61.9500717401042, 1.72010586417525
1.27013012584566, -61.7696315264623, 1.52434792345398
1.27979344252504, -61.8386069392005, 2.09367854764987
1.290284157484, -62.0512945138675, 0.336093822300584
1.29951390353087, -62.0069634738863, 2.85145665541354
1.3095442450218, -61.9314790869205, 0.870026259360647
1.32031647552102, -61.8439303993157, 0.35001095044669
1.32988282005496, -61.9395747334703, 0.164476386009488
1.34016799245342, -61.9438769101133, 0.902473501757247
1.35021521089153, -61.6890121624962, 2.21723488654747
1.36003523728506, -61.8282734720396, 0.233841367100744
1.36963811957363, -61.8999459433045, 1.54167629464501
1.37987736355889, -61.8053970449165, 0.756985323484703
1.38988074973025, -61.9150469166073, 1.38680915003135
1.39965889970444, -61.7272332089901, 3.95140814757058
1.4100092122469, -62.0757476247228, 0.913171839421824
1.42011858233714, -61.6858630012361, 2.80945661769792
1.42999797293823, -61.9857725774413, -0.385523241285661
1.43965761539896, -62.1006204334457, 2.4655496867221
1.44982550917017, -62.0026765992873, -0.39975081345822
1.45976078353782, -61.7611512908293, 0.913054969757856
1.47015939239943, -62.0187005184441, 2.0598132690732
1.48031483131807, -61.8061013682483, 2.2691858630442
1.49023821388572, -61.6190589620462, 2.53369370424809
1.4999399087982, -61.8738959141234, 1.78400390743184
1.51005493910781, -61.9018467192562, 1.37876958204383
1.51993973524747, -61.768620513425, 2.28800212593145
1.53020151383074, -61.8077212747981, 0.17920008220564
1.54022640726599, -61.700507729765, 1.84883413748092
1.5500251058573, -62.0407871653943, 2.29086702437787
1.56016473720818, -61.8142867070859, 0.441935961538701
1.57007302586843, -61.7841620501929, 1.53515662838069
1.57976029327156, -61.9388842107483, 1.0979200607036
1.5897566100013, -61.7232749836569, 1.2713646440117
1.60003624924587, -61.9195981678721, 0.754565362747447
1.61007818754001, -61.9612697602662, 1.10950191625619
1.61989316983361, -61.8774389999953, 2.02200762640984
1.62996560818555, -61.9984854510691, 0.673652959378732
1.63980972540548, -61.8583397904663, 3.1064872658043
1.64988874168836, -61.9625221367508, 3.23477719688163
1.66018162230465, -61.9373380820867, 2.1211603669767
1.6698038473267, -61.8316226001435, 2.11120412138135
1.68006324917696, -61.8782736056902, 0.726016914930659
1.69008587433542, -62.003931631888, 2.07418388968817
1.69988240584807, -62.0570606353871, 1.7278452827383
1.70985745348945, -61.9721565117035, 2.83967516345132
1.71999405056381, -61.8930603846057, 1.83861665893841
1.7298994418124, -61.8048455115635, 3.17449891178329
1.73995214182383, -61.7344311689662, 2.11806999067362
1.75013706880281, -61.8101576362992, 0.17298551568469
1.7600886052705, -61.844829260601, 2.91958893239403
1.77016066002954, -62.6334060067602, 4.13336631281942
1.78000441085038, -61.9319370677935, 2.33417525458047
1.78995811962138, -61.7091220557259, 0.752930976956395
1.80000942972812, -61.6497904785314, 2.96220535832965
1.81014659559098, -61.6145405159985, 2.09225964046575
1.82005252997517, -61.9411053242448, 3.82545902273516
1.83003675088177, -61.6575141090454, 3.26983973769267
1.84008894394226, -62.0725390253949, 1.33578946225964
1.84991372246247, -61.9842531775965, 2.20702463869613
1.86007972717137, -61.9673236412663, 2.33105684713895
1.87001319791935, -61.9558650279666, 1.92133782436522
1.87999121882621, -61.769119029378, 3.85707627084159
1.89000573434571, -61.8099879991302, 4.94342379576845
1.9000491613492, -61.6704578033188, 4.13746772610331
1.91011437388725, -61.7034635382979, 3.68629858419358
1.91995158907023, -61.9502565673719, 3.38345460016062
1.93004632591551, -61.7961960789343, 2.7944661645561
1.9399117410542, -61.8348275555068, 4.94692494541434
1.95001206795852, -61.8580089855102, 4.86039217434505
1.96010457051244, -61.9269436695037, 3.63848151811671
1.96996785171291, -61.7994650561434, 3.8824913193497
1.98003579488607, -62.0907454540243, 5.15219140325054
1.9900825731001, -61.7972951075578, 4.62083288926234
1.99990217895395, -61.9950681552801, 3.71742754766263
2.01009782260517, -62.0004192121686, 4.15989877536983
2.02005958995333, -61.8029954067036, 3.63311509287805
2.02998675318634, -62.0267545638524, 5.34263842154741
2.04006104598262, -61.80034225013, 4.99224246940191
2.05008717709257, -61.8392070971244, 5.15285630055683
2.06006320677741, -61.7403434058525, 5.46937579138881
2.06998738503527, -61.8366873829631, 5.33766352751766
2.0800263724481, -61.810502499255, 4.03335964128593
2.09000294779621, -61.7329116090873, 5.93508524839979
2.1000768217873, -62.0094091796564, 6.28523732450595
2.10992231029099, -61.9576795363415, 6.55557399204775
2.1200100038828, -61.8699678717769, 5.95000550405838
2.13001862972146, -61.6629983204299, 3.43324943724901
2.13994833382499, -61.9031406132225, 7.41285227694319
2.14994254482836, -61.7893708494186, 4.77324803664827
2.15999184710385, -61.7414781752863, 7.69478902200663
2.16995062827276, -61.8515848811173, 8.17432839022917
2.17995349549657, -61.8094409346966, 5.70144067325739
2.1899923794012, -61.7171690580167, 5.88089509884173
2.20005968593025, -61.7510292652774, 8.03073388472396
2.21002360897594, -61.9374694426151, 6.09610514942899
2.22000782988254, -61.6479377048955, 7.12181177391254
2.23000589783148, -61.4921449879918, 7.38370855126766
2.24001176959216, -61.7174226968316, 8.29361485290203
2.25001979289102, -61.9763200121831, 8.10230733596791
2.26002468956444, -61.760663260693, 8.03617974175686
2.27002153865122, -62.0677985565715, 8.16826437453704
2.28000575955782, -61.5246392353662, 13.9108997200391
2.28997309540893, -61.7794675604249, 6.42058459092024
2.30002096077692, -61.7920960695813, 9.17029250492466
2.31003973221976, -61.5936216577251, 8.27916155742176
2.32002620405077, -61.6538712858685, 7.78534882099065
2.32997742728372, -62.0079054293446, 7.95617635198655
2.33998314695929, -61.7771640033733, 10.8450754535715
2.35003459351238, -61.7426114279756, 10.276516457471
2.36003523728506, -61.936360721735, 6.04977143556101
2.36998334573004, -61.733821044646, 9.84317204056075
2.37996168439828, -61.5746437916947, 10.2312245724703
2.38996315073266, -61.8336005541577, 11.3525910953329
2.39998107663457, -61.5727064474667, 11.4316844042214
2.4100092122469, -61.6789101329295, 13.3980992949589
2.41996482256145, -61.5713453660044, 12.4500167206591
2.42999797293823, -61.6540341205539, 11.5960471829039
2.44002488348165, -61.9119490081579, 12.9133044550926
2.44996905386885, -61.5957826462534, 13.1261708405849
2.45997121452727, -61.7856952854816, 13.3502420026481
2.47002236937198, -61.6975330681208, 12.610406874248
2.4799801149378, -61.5497501481712, 12.9505187773164
2.48997651187002, -61.7982858236746, 13.6907563079284
2.50000386498445, -61.6157916590642, 14.6890382790656
2.50999244619715, -61.7247748197323, 13.460860808079
2.52000081315797, -61.3672788833364, 15.1320560113071
2.53002250943915, -61.6399807878559, 16.0835132184528
2.53999316640007, -61.543950519134, 15.4849374888958
2.5500251058573, -61.5078318386417, 14.4437958938461
2.55999766873837, -61.5312433472528, 14.8835349788141
2.57001859959078, -61.4625737571957, 16.789963163255
2.58002632359039, -61.7190532685068, 17.2666660668889
2.59001658874711, -61.5236665310529, 17.2271346930026
2.59998545159895, -61.3833320015603, 17.9367431843588
2.6099789088833, -61.3369054245206, 17.699076273765
2.61999020803799, -61.5493832340353, 19.3625439422413
2.63001301765909, -61.3425702768527, 19.3747306061354
2.63999508370189, -61.4637010837351, 18.1508763215939
2.64997930460849, -61.3101957589782, 21.2099643740773
2.66000468423665, -61.3058939770846, 19.5140775369835
2.67002007560197, -61.3494137566465, 18.6598090438282
2.6800210005771, -61.1790146701881, 20.4886403911295
2.69000330099514, -61.1305061379018, 21.2233584790812
2.70000347479331, -61.3028153586797, 21.920578338705
2.71001520666296, -61.431509815902, 20.7822582162838
2.71999405056381, -61.4236081545878, 23.4292191704685
2.73001242654579, -61.1335516136411, 25.0000147869943
2.73998894488151, -61.1899996040591, 23.4819538837961
2.74999323886876, -60.9788698341526, 24.6372889439269
2.75998318119378, -61.157129976908, 23.6885249153153
2.76998896819812, -60.9230538360536, 24.1534144618764
2.78000441085038, -60.9342654510081, 26.9368536812483
2.78999092008074, -61.186144443978, 23.752101011148
2.80000942972812, -61.1126608756528, 27.8322200076119
2.80999000843158, -60.901271509446, 27.1465260225339
2.81999131431761, -60.8915214049451, 29.1217121374739
2.83000683976348, -60.6855992018414, 28.9315245645157
2.84000125787367, -60.7452361463667, 29.0962204202279
2.84999943002093, -60.6786827559247, 29.7647670038422
2.85999598622914, -60.5480340530712, 30.2944273875363
2.87001319791935, -60.6786988273342, 30.806167375722
2.87999121882621, -60.588411627859, 31.0724040112258
2.89000573434571, -60.5182148751599, 31.805486159437
2.89999824459179, -60.4971895428738, 32.1634663127184
2.9099899876679, -60.3157428114787, 31.6173152949651
2.92000021954807, -60.3802905381823, 33.7443882600119
2.92999880750834, -60.2445089401401, 33.9503074107347
2.94000462833547, -60.0905338690675, 35.5586959008228
2.94998937695395, -59.8587457981023, 34.8197716776934
2.95999371040158, -60.1054617249052, 35.0110882399206
2.96998952255356, -59.9390126600804, 37.0538041929698
2.97999344328606, -59.8095637495235, 36.5346492722885
2.98999980304422, -59.8105940191458, 37.7806607471706
3.00000330702098, -59.7667311281079, 39.7562530540789
3.00999901826351, -59.9018928795839, 39.213748137708
3.02000165441083, -59.411967145022, 40.9491672926567
3.03000562693885, -59.6477932777536, 41.2592035256833
3.04000571832066, -59.3291661246444, 40.8077237410471
3.04999706515493, -59.3579525950403, 41.4299857653931
3.05999275589204, -59.1889154328815, 42.4910918667363
3.07000459811, -59.0893722119366, 42.7724956657822
3.0799927309839, -59.0749091968933, 43.2304427771446
3.09000294779621, -58.8804836741303, 44.8223903112637
3.09999650842934, -58.716740200652, 44.8335906674236
3.11000080906787, -58.8508161456333, 44.7928427657385
3.11999466293782, -58.6360025970275, 46.9418658024432
3.13000363828281, -58.5405306238112, 47.5727342597866
3.14000693911243, -58.3781301655296, 48.2833752748537
3.14999981694791, -58.2781999155701, 47.967837478522
3.16000583832442, -58.0760282732212, 49.220946933418
3.17000532186667, -58.0817786639756, 49.6650509208608
3.17999358236785, -57.9546911392747, 50.3893497104186
3.190005436766, -57.7534408855159, 50.1281203076817
3.19999588945832, -57.6558562643799, 51.841841488722
3.20999867030517, -57.4990951197347, 51.9070107957105
3.21999564412006, -57.405762737257, 52.0269552502998
3.23000589783148, -57.3137043162229, 53.6930156101704
3.24000013239226, -57.1753506537047, 54.0845279203886
3.24999704841057, -57.2016705699244, 55.145069388271
3.26000246307543, -56.8757648404875, 55.2675770670719
3.26999981795393, -56.8976669136835, 56.0421989394242
3.279995146171, -56.7073558880543, 56.7704824768347
3.29000421164423, -56.4517568928103, 56.3902501700795
3.30000068984962, -56.2756231701264, 58.2054577486516
3.31000011404039, -56.2295835861366, 58.2854435859018
3.31999716623034, -56.1037011782419, 58.7380917921516
3.3299963462566, -55.8083095369859, 59.8762765592826
3.34000163504945, -55.8286858967546, 59.9170981729498
3.34999846102084, -55.6269499686134, 60.5740779584959
3.35999992735521, -55.5674377600398, 60.7213571839324
3.37000059983632, -55.3608911267474, 61.362503183065
3.3800038386795, -55.1908299576662, 61.7563812924166
3.38999610675649, -54.9614305558871, 62.9742624400799
3.39999717920894, -54.8563255931911, 63.1772498536317
3.41000134452198, -54.657822643864, 63.6336175429872
3.42000326760922, -54.4868475000031, 64.0311167822299
3.42999797293823, -54.2602906702997, 64.7458867170756
3.44000285615304, -54.1957729726333, 65.2359976008018
3.44999775711607, -53.8755093354493, 65.2524613265748
3.45999926429037, -53.9112563442554, 65.9658056819509
3.47000181218862, -53.6234450780299, 66.4603315112983
3.48000020519702, -53.5340001142112, 66.8438655719345
3.4900026891692, -53.3334587581216, 67.2020553950274
3.49999746978964, -53.2289216326953, 67.8852709060757
3.50999869589289, -53.1036853275883, 68.7342634908731
3.52000081315797, -52.7366829259547, 68.8808509077621
3.52999863661142, -52.6283216253799, 69.280511243608
3.53999899894863, -52.5341720843195, 69.5068938116219
3.55000230764832, -52.2350287342239, 69.5848245420794
3.55999766873837, -52.12187724561, 70.4266663266811
3.57000227037735, -51.9113760852472, 71.2032399943957
3.57999972789045, -51.7696632719684, 70.8871281949834
3.59000099441034, -51.6493871336563, 71.9289757621254
3.6000006915169, -51.4266147985487, 71.7996277278133
3.60999876643031, -51.3081644506165, 72.4963300238505
3.61999991066602, -51.0339133371652, 72.4501258960998
3.62999879536044, -50.9004852790117, 72.9244634578603
3.63999971664584, -50.6895030992083, 73.0300462004028
3.65000194238805, -50.4704893292514, 73.806029652626
3.6600002598612, -50.3080773516801, 73.9620017334413
