Frequency Log(Hz), Gain(dB), Phase(deg)
3.00000330702098,-0.715383725490569,-0.00522943126661419
3.00500992863829,-0.718736161871086,-0.00683080042799299
3.00999901826351,-0.717375197905629,-0.0104551453931715
3.01500959721669,-0.716016745805537,-0.00589483951268568
3.02000165441083,-0.715143262702175,-0.0147217832981423
3.02499426213247,-0.717937749966985,-0.0181260045971416
3.03000562693885,-0.718364473506716,-0.0010689465180092
3.03499714110545,-0.716049105401808,0.00237846070231601
3.04000571832066,-0.718113121214063,-0.00590375928763132
3.04499365893573,-0.717980166191673,-0.0140042545996667
3.04999706515493,-0.717396536168907,-0.00426778607683959
3.05499694131327,-0.71709097397399,0.0011622587186729
3.05999275589204,-0.716767388623199,-0.00409937522141515
3.06500140940756,-0.716908648414464,-0.0063304982296077
3.07000459811,-0.716710731481064,-0.0135122047112809
3.07500185499283,-0.716904624489132,-0.0105489541147175
3.0799927309839,-0.717376445669029,-0.00264943731245614
3.08499342357279,-0.717607135643993,-0.0050017012173133
3.09000294779621,-0.716598338751961,-0.00652299709075066
3.0950040985896,-0.716351841543156,-0.00938318345153395
3.09999650842934,-0.71637176282698,-0.00542486971847299
3.1049957057457,-0.717031987437973,-0.0152246453509507
3.11000080906787,-0.71799205618867,-0.00947537770723281
3.11499544576045,-0.716901693801959,-0.0107759912662239
3.11999466293782,-0.717393679782954,-0.00540154927117813
3.12499765403033,-0.717612667709415,-0.00434535917476243
3.13000363828281,-0.717249957588671,-0.00780372551275515
3.13499704017419,-0.718676570579061,-0.0196053324346431
3.14000693911243,-0.715445548002408,-0.0189464794130517
3.14500315417466,-0.717664465851958,-0.0149637450673561
3.14999981694791,-0.716640079840221,-0.00280775597203701
3.15499626213765,-0.718932211519666,-0.00634164195443903
3.16000583832442,-0.71951870509773,-0.00285874875661921
3.16499978259092,-0.716992777137202,0.00149019968419314
3.17000532186667,-0.715129427221385,-0.0153976010413428
3.17499437664947,-0.716799075396266,-0.0136752185801998
3.17999358236785,-0.719388238754073,-0.00782166645029483
3.18500194338571,-0.716792676392251,-0.00778638255552491
3.190005436766,-0.716211424099148,-0.00592576648662394
3.19500357510784,-0.716722595569119,-0.00026906294978766
3.19999588945832,-0.716796723535892,0.00381738631492088
3.20499454320004,-0.71789034020742,0.000596300781077147
3.20999867030517,-0.716967546980262,-0.0127058919082889
3.2149951049291,-0.715725640133735,-0.00533429475646471
3.21999564412006,-0.71857235061607,-0.00224313974574998
3.22499949691214,-0.718239860260188,-0.00899633393419545
3.23000589783148,-0.716818402572673,-0.0109684532039005
3.23500233448344,-0.716657374663326,-0.000544894552575606
3.24000013239226,-0.717797493627429,-0.00208647259903128
3.24499859482012,-0.717870391206535,0.00891283053193804
3.24999704841057,-0.716769603599551,-0.00124097297970835
3.25499484266252,-0.717012529434409,0.00234090775576656
3.26000246307543,-0.717532674378881,-0.00845026780132024
3.26499694886067,-0.717740820691124,-0.00232725742088033
3.26999981795393,-0.7153199150545,-0.00556150733366557
3.27499939690885,-0.718043538592507,-0.00812975029874551
3.279995146171,-0.717739939821813,-0.0106743643812067
3.28499703799579,-0.719049507643711,-0.000636437576485046
3.29000421164423,-0.717186698639867,-0.007282316367296
3.29499532746438,-0.717494014381142,-0.00981770193263089
3.30000068984962,-0.716717246633558,0.00246941663369258
3.30499912220679,-0.718207051516266,-0.0074264677104379
3.31000011404039,-0.717422694281757,-0.00707328622033268
3.31500292665823,-0.716338081560534,-0.00836597720534451
3.31999716623034,-0.718456432113452,0.00196810353408575
3.32500161211616,-0.718236353310244,-0.00921231008574929
3.3299963462566,-0.71653196229522,-0.0105964227315453
3.33499975090547,-0.716727628565824,-0.00770506056196807
3.34000163504945,-0.718094582867033,-0.0172961607773892
3.34500139819117,-0.717155481345112,-0.00809991564997795
3.34999846102084,-0.713723464111667,-0.00730443318731172
3.35500119502274,-0.717602737738256,-0.0135375073065755
3.35999992735521,-0.715025267069384,-0.00914091996924166
3.36500286974154,-0.717277618376202,-0.0108541469643783
3.37000059983632,-0.716859201531808,-0.00371469706069816
3.3750011721899,-0.717499813341013,-0.00298267946465466
3.3800038386795,-0.717097284505335,-0.0119907573481966
3.38499954179144,-0.7179411707285,0.000722286526329269
3.38999610675649,-0.718409926351321,-0.00742389031315651
3.39500099863917,-0.717840879812932,-0.00563327553685529
3.39999717920894,-0.71709690790998,-0.00508611909045934
3.40500021219199,-0.717457073958062,-0.00908376233823271
3.41000134452198,-0.716693564767586,-0.00372917588640353
3.41499998889428,-0.71744763865187,-0.00693900705589018
3.42000326760922,-0.716288986391736,-0.0076440988417094
3.42500276996446,-0.715840683617236,-0.00658571509146993
3.42999797293823,-0.716437197888363,-0.0178852681716303
3.43500322835498,-0.717010458360387,-0.00699409408240667
3.44000285615304,-0.717680026134657,-0.00723201964672735
3.44499639610707,-0.716763890580021,-0.00913243466353607
3.44999775711607,-0.718110740682263,-0.00529426432808622
3.45499892831445,-0.717428374492472,-0.00533860628973149
3.45999926429037,-0.716869224947881,-0.00988259139572988
3.46499814186728,-0.717193178089302,-0.000840465492841991
3.47000181218862,-0.717507214129836,0.00105801675204921
3.47500268555671,-0.718826688574037,-0.00331603838271567
3.48000020519702,-0.716440513612138,-0.0102119395910232
3.48500045445688,-0.719166401910698,-0.00931958952512668
3.4900026891692,-0.715320381113567,-0.0116550366369025
3.49499972041892,-0.716346819071027,0.00246063643184861
3.49999746978964,-0.717928025045507,-0.00465851008403563
3.50500158440836,-0.717938189149996,-0.0138403345654273
3.50999869589289,-0.716644023427424,-0.00163269684038018
3.5150007479109,-0.716707394154306,-0.0148995678326399
3.52000081315797,-0.71697670239373,-0.010341622882172
3.52499830765425,-0.71739209242015,-0.0102498834400183
3.52999863661142,-0.7179228604568,-0.002912188233356
3.53500105227064,-0.718565374230211,-0.00354792270566016
3.53999899894863,-0.716427322961046,-0.0112105896427081
3.54499774349243,-0.717812087540537,-0.00472391935927766
3.55000230764832,-0.717224709326117,-0.00398192727404206
3.55500057168647,-0.716705757517639,0.00442942236471699
3.55999766873838,-0.716517369867906,-0.0102812755586685
3.56499849440886,-0.715879214703323,-0.00763477491274213
3.57000227037735,-0.717197262974965,-0.0178299252601643
3.57499748182666,-0.716004524894042,-0.01375012781272
3.57999972789046,-0.716760974009789,-0.00773730738043407
3.58499760063069,-0.718034169883596,-0.0153878293710339
3.59000099441034,-0.716377419720597,-0.00697602139264115
3.5949987916227,-0.71835416205837,-0.0153934525298839
3.6000006915169,-0.716996986380043,-0.00224075358529826
3.60500088092141,-0.718797228482958,-0.00710551566809115
3.60999876643031,-0.716883438536978,-0.0148694755989609
3.61499868311915,-0.716433935743434,-0.0132063010432201
3.61999991066602,-0.71823182569643,-0.0120367434434578
3.6250017526808,-0.716632780873617,-0.0189006718536285
3.62999879536044,-0.716223733916174,-0.00174766089159146
3.63499992451262,-0.717637182819849,-0.00368674529629452
3.63999971664584,-0.717700956014996,-0.0132893189070064
3.64500214571118,-0.716202147457425,-0.00735905654875009
3.65000194238805,-0.716686098996112,-0.00640042287521608
3.65499854471387,-0.718029798532899,-0.0100191748290968
3.6600002598612,-0.718574566753506,-0.0122718638084969
3.66500188842177,-0.715253505834278,0.00143170073409194
3.66999845761835,-0.715939623461443,-0.0128789883406302
3.67499803753525,-0.717686703125991,-0.0177593927398335
3.67999987473582,-0.715239582379093,-0.0107698402997919
3.68499906355467,-0.716855261500979,-0.00207539206217803
3.68999917191597,-0.715961212272823,-0.00231017585108642
3.69499951715893,-0.715696769433284,-0.01139163466623
3.69999943970551,-0.715798960996681,-0.00518131132124447
3.70499830253342,-0.716886182515298,-0.00680283683351621
3.70999943392397,-0.716597331755609,-0.0139285312601338
3.71499820689452,-0.717875431956767,-0.00526333962821912
3.72000175758472,-0.717560232296775,-0.00908962347451388
3.72500165224051,-0.716972605368587,-0.0111887274309116
3.73000112939508,-0.715499366589522,-0.00166226745956738
3.73499955202159,-0.717652849023038,-0.0107478092763392
3.73999998519068,-0.716167125185612,-0.00644709243435767
3.74500170907336,-0.716572070418589,-0.00272078652574563
3.75000043149688,-0.71654290214541,-0.00779165531885822
3.75499915856606,-0.718818189908795,-0.0150194693672126
3.76000075365051,-0.717629022357352,-0.0102828806533484
3.7650009931606,-0.715479622644682,-0.012579095368773
3.76999927162233,-0.716219034116717,0.00272517832326771
3.77499839999381,-0.717751958136164,-0.00742852342658849
3.7800010546204,-0.716805102166565,-0.00644374496350497
3.78499982768132,-0.716535375180936,-0.0172269968113548
3.79000075973549,-0.717117919417322,-0.00163201091735849
3.79499988341478,-0.717915086533144,-0.0149259488309428
3.7999998142457,-0.717483546900839,-0.0144558423602454
3.80499987345287,-0.718934554709856,-0.00574612033959197
3.80999940525344,-0.715056275896806,-0.00607198736423063
3.81500087271635,-0.716719617979332,-0.0011940268629787
3.82000049721633,-0.717924445087282,-0.0203320220375938
3.82500071596204,-0.716322294592131,-0.0118070130318846
3.83000085729261,-0.715638495151771,-0.00855999994672452
3.83500027237952,-0.7173837466819,-0.0077554137906757
3.84000125787367,-0.717466573859317,-0.0101063182022741
3.84500021896821,-0.714266158689921,-0.0176137771806738
3.84999943002093,-0.718008631298518,-0.0132121658270758
3.85500105538816,-0.716564275840188,-0.00716190702122819
3.85999877785404,-0.715206999457762,-0.00703335183896149
3.86500035836764,-0.714346307065034,-0.00303535902801301
3.86999955780308,-0.717188704087805,-0.00996621685434507
3.87500119957869,-0.715519293983643,-0.00941151722465071
3.87999921680932,-0.716621204120813,-0.00820934388944489
3.88500098825872,-0.715147047489926,-0.00678602538566707
3.89000052382276,-0.716628663901639,-0.0179078171153034
3.89499982364306,-0.716054176093028,-0.00559394488399729
3.90000079057144,-0.714230821082931,-0.0112557955420283
3.90500019940042,-0.71547727799342,-0.0147245455992219
3.90999993987657,-0.715731134967079,-0.0179866064877711
3.91499934944091,-0.715177282118193,-0.0181635402664091
3.92000021954807,-0.714556397838552,-0.0148151657747901
3.92499944531419,-0.715898886644547,-0.00476635189717108
3.93000118355219,-0.714667818422291,-0.0271118356100833
3.93499999919761,-0.716815608525492,-0.0159094805647447
3.93999998444321,-0.714216726290716,-0.0205887879773163
3.94500044818794,-0.714950486983647,-0.0113045193434769
3.95000072260443,-0.715160109773915,-0.0136706207961529
3.95500016261192,-0.714643972943498,-0.0104844928096123
3.96000036280632,-0.714405928445887,-0.0103291011323272
3.96500064590053,-0.716517417772144,-0.0124840946783951
3.97000035756839,-0.715277892699912,-0.0152472646165605
3.97500100809054,-0.715410443388573,-0.0239148607234999
3.97999979628936,-0.714177893391013,-0.0124827255833343
3.98500032127905,-0.713874732534785,-0.0147074857696515
3.98999980304422,-0.714915347669019,-0.0195043875450887
3.9949996715612,-0.714275322664857,-0.00638732024228458
3.99999926235039,-0.714882662200196,-0.019740412196084
4.00499993279315,-0.715322196052234,-0.0154480756811608
4.00999901826351,-0.714004358990744,-0.020582863683425
4.01499982889986,-0.71558226173627,-0.0116037440883016
4.01999972309296,-0.71367636185956,-0.0280338010499287
4.02499998981021,-0.714913903713337,-0.0203754416948553
4.02999996489922,-0.713680307819016,-0.0222331710117067
4.03500087262253,-0.714650629424806,-0.0178122464329693
4.04000018516678,-0.713177533376245,-0.0185241787999597
4.04499912883472,-0.715080002647253,-0.0146778535375542
4.05000066999145,-0.713138653065976,-0.021997044408451
4.05500050488675,-0.713292248314558,-0.0279923130999989
4.05999980149489,-0.713485880760108,-0.0145903715781349
4.06499966818652,-0.713334887044357,-0.0211504415193506
4.06999943425922,-0.71419791214164,-0.0212826889904866
4.07500015340864,-0.713025050972187,-0.0257421420967508
4.07999945948522,-0.713692942035977,-0.0309180067605255
4.08500007504357,-0.712078145117446,-0.0346218119702934
4.08999966016467,-0.711222090579406,-0.0227173530231648
4.09499922359612,-0.713426390167776,-0.0212088559291634
4.09999972124884,-0.713338475430912,-0.0194326397841732
4.10500046980998,-0.713337350639061,-0.0263107695599247
4.10999923923137,-0.711024382961609,-0.0245059321801718
4.11500010138476,-0.712860202419698,-0.0263806899131964
4.11999926527822,-0.712498554796952,-0.0250650750705695
4.12500068712015,-0.712644316094553,-0.0340530532392349
4.13000063993298,-0.712237744375602,-0.0279584404730867
4.13500000422688,-0.709938343356833,-0.0309101650250167
4.13999961388398,-0.711449993921164,-0.0232009480037928
4.14500025761328,-0.711291875376452,-0.036189510381846
4.14999981694791,-0.712475939566919,-0.0435801108314207
4.1550005081115,-0.711693315644363,-0.0267032305696701
4.16000024189028,-0.712642071509004,-0.0393342565448614
4.16499978259091,-0.712288509695145,-0.0357206281006661
4.16999985281723,-0.710787404895968,-0.0407766341982204
4.17499978316379,-0.712156948232799,-0.0471700577882894
4.18000026315334,-0.710711803050074,-0.0355638070614987
4.18500062253674,-0.711085925521862,-0.04007389295072
4.19000021386719,-0.710949513828741,-0.0377959887504648
4.19499970276268,-0.712081139965684,-0.0339490305449109
4.19999971751092,-0.709351185809999,-0.0445636307460907
4.20499958885294,-0.711533186760174,-0.0409579963399646
4.20999991727272,-0.708293832849882,-0.0509104742536689
4.21500003572319,-0.707359244287513,-0.0432460873804604
4.22000051846608,-0.709626558910567,-0.048668301290927
4.22499949691214,-0.70834256538005,-0.0417540827216719
4.22999994365738,-0.709376985611938,-0.0346801608640512
4.23499998006698,-0.708580539802398,-0.0465009398775769
4.24000013239226,-0.709391656429501,-0.0448067479117206
4.24499974523708,-0.70980131182534,-0.0554256209142183
4.25000046015857,-0.708767348584812,-0.0471185749953573
4.25500046383352,-0.707891776536474,-0.047337349857804
4.26000024036396,-0.708729868058808,-0.0552064331366418
4.26500024478402,-0.707453327815917,-0.0455526059764191
4.26999981795393,-0.709232936576746,-0.0650305581571441
4.27500047053854,-0.707929315851222,-0.0598968090696065
4.28000045289684,-0.706537729245265,-0.0632242146505492
4.28500018557805,-0.706713794319321,-0.0588091679077988
4.29000006294166,-0.707460349649631,-0.0637977653345041
4.29500045403046,-0.706772092776659,-0.0658651272686045
4.29999967627841,-0.705242929032377,-0.0619227113709521
4.30500012417703,-0.707291799373834,-0.0711701496693373
4.31000011404039,-0.70714768488372,-0.077509949521286
4.3149999891828,-0.704608572486958,-0.0656979065710996
4.32000007009975,-0.707135678327329,-0.0650023035641333
4.3249996983724,-0.708211004830409,-0.0777186008395184
4.33000012995228,-0.705985165481735,-0.0688325474666735
4.33499975090547,-0.706177700171599,-0.0770889616890851
4.33999978627585,-0.706369732482512,-0.0797319714095654
4.34499957057935,-0.704420152986731,-0.0747316754075422
4.35000026771681,-0.70460918872016,-0.0931744809783133
4.35500030201814,-0.704115129407625,-0.0862396336155515
4.35999992735521,-0.704377917979485,-0.0817465021026445
4.36500025171443,-0.704911058374482,-0.0807329178384538
4.36999973714728,-0.705184542071481,-0.0807557501970909
4.37500031937712,-0.703618956382188,-0.0819442869766373
4.37999962343549,-0.702862284338223,-0.0936493490824966
4.38500037519335,-0.70207401502798,-0.0987871723274145
4.39000022608364,-0.702354172332059,-0.100931422430699
4.39500018420899,-0.704757401116512,-0.100679407784529
4.40000039965217,-0.702604142059103,-0.0884671418712129
4.40500021219199,-0.699648409848842,-0.106583996479728
4.40999977095989,-0.700947775657705,-0.115600499771166
4.41499998889428,-0.701216721153156,-0.112986801769904
4.42000019213064,-0.702812186793387,-0.108184713327744
4.42499972968722,-0.700620624666043,-0.108230202420186
4.43000022705599,-0.700887245880996,-0.117286544703537
4.43500025728628,-0.700072915099657,-0.112794588954911
4.43999991909148,-0.70073074516091,-0.112053655468473
4.44500002543524,-0.700541387465315,-0.10833447715275
4.44999990978314,-0.700324727131673,-0.119849397756129
4.45500034699562,-0.699356196794318,-0.136102633716994
4.45999996551124,-0.700413502595323,-0.132580055194827
4.46500022145152,-0.701140067620771,-0.131267899877534
4.46999975641676,-0.698241506628974,-0.142802962269137
4.47499997590728,-0.698533008054866,-0.136707917877572
4.48000020519702,-0.698737662810279,-0.137366860418463
4.48499979246247,-0.697696463369174,-0.134226290971077
4.49000007151029,-0.698127616341337,-0.140855357933066
4.49499972041892,-0.69591524758672,-0.155903976002158
4.50000002787886,-0.697253906596317,-0.160078060985984
4.50499968781134,-0.695901073777,-0.153915485671018
4.50999994582125,-0.695120253283438,-0.169015083511748
4.51500013010222,-0.698247108909324,-0.159056389726441
4.52000020242138,-0.697372708570716,-0.163326412203613
4.52500011889628,-0.697244689340355,-0.171673212279025
4.52999983028398,-0.695267576256481,-0.170249385409357
4.53499987226528,-0.695435260035244,-0.168094695821917
4.54000016544894,-0.695514282624965,-0.189484229883759
4.54500004979106,-0.695579463864273,-0.182562281612207
4.5500000277616,-0.694763625858804,-0.187682875979906
4.55500000823807,-0.694878583408371,-0.193715673663601
4.55999989674078,-0.692599854085136,-0.19351847150657
4.56500014628082,-0.6932902117034,-0.204698223373779
4.57000009310251,-0.692754453586914,-0.212851037030327
4.57500017228098,-0.692701527033563,-0.209280091623971
4.58000025982042,-0.693565606047453,-0.212347976175237
4.58500022984226,-0.692699785922529,-0.225664028138027
4.58999995476798,-0.692923741333563,-0.220120470569505
4.59499981936714,-0.69176032107475,-0.233035479187841
4.60000018352825,-0.691807173044304,-0.244060722927823
4.60499987657378,-0.693476911329802,-0.234048792063824
4.60999975928383,-0.691173232678486,-0.25039650727071
4.61500015535125,-0.690458415776074,-0.253589260619144
4.61999991066602,-0.690990500318145,-0.251121256010768
4.62499983439354,-0.691014708860078,-0.256080621518464
4.63000021761126,-0.68839238109758,-0.262025578359742
4.63499992451263,-0.690483793957027,-0.272265576898766
4.64000017993751,-0.688679481986564,-0.275559965910862
4.64499985577463,-0.687987245374288,-0.279013222885815
4.65000013140911,-0.689349548991764,-0.283395530527612
4.65499988740613,-0.688821518942712,-0.289940406857254
4.65999981742117,-0.687060627785712,-0.287028089348103
4.66500013892388,-0.687376980518156,-0.288205409578737
4.67000018709664,-0.688281763985576,-0.308571060810569
4.67500017463771,-0.687520989259963,-0.309107887312684
4.67999987473582,-0.686222812697828,-0.316107221637945
4.68499989893638,-0.688661898944015,-0.313824996189584
4.68999999773495,-0.685810664970856,-0.331889116485095
4.69499992534175,-0.686933188621559,-0.342428866748082
4.69999984321598,-0.687167868469152,-0.351019949252708
4.70499989810149,-0.687364191396533,-0.349895297089833
4.70999982824942,-0.685304489230867,-0.354045365212082
4.71500015595478,-0.684840197008572,-0.361574972365887
4.71999983084231,-0.686416839578711,-0.375398201976467
4.72500012849111,-0.685797406775112,-0.376587346358644
4.72999999966384,-0.68485280095951,-0.377951543039323
4.73499992428874,-0.68373798476975,-0.374116093876659
4.73999998519068,-0.683236354234965,-0.389592248318445
4.74499989011125,-0.682983634876081,-0.400477454115785
4.7500000718683,-0.684854201329913,-0.408224532899584
4.75499986959116,-0.683090707548644,-0.40812168499194
4.7600000507659,-0.682188543221705,-0.42000595503399
4.76499995090262,-0.683125549249644,-0.422366224928331
4.76999995850858,-0.682582975178925,-0.433617953845067
4.77500009755408,-0.681367745439202,-0.439142894892712
4.78000004774634,-0.683839395947831,-0.449915518972932
