Frequency Log(Hz), Gain (dB), Phase (deg)
1.00050859443331, -1.28919768742734, -31.8765796548078
1.00452986836623, -1.31258611748789, -32.1512869438068
1.01049281533991, -1.34838053583557, -32.4716416607455
1.01442310896834, -1.37201769485666, -32.7140208211545
1.02025265262906, -1.41632538215516, -33.0453859168905
1.02409599171082, -1.43239464656249, -33.2911598113331
1.02979797053529, -1.46840295473125, -33.6238312965557
1.03542605554372, -1.50813769701434, -33.9761294547156
1.03913799678944, -1.53121347087156, -34.1963323324177
1.04464709157421, -1.56765188446786, -34.5231353393848
1.05008717709257, -1.60436621351923, -34.8530990025781
1.05545996085643, -1.64142409934362, -35.1680321382446
1.06076708777737, -1.68546720467001, -35.5206639075716
1.06426948161344, -1.70402265972964, -35.7010264482785
1.06947067529924, -1.74738370839616, -36.0509021088066
1.07461031495166, -1.78140215875794, -36.340794594333
1.07968984048093, -1.82737827733863, -36.6047985658445
1.08471064185598, -1.85732594356983, -36.9573301116312
1.08967406138753, -1.90218187784206, -37.3007344720825
1.09458139588228, -1.93887848326246, -37.5900041939977
1.09943389867669, -1.97699885273021, -37.891767678056
1.10423278155846, -2.0178200133275, -38.1935684517874
1.11054990358215, -2.07163475493802, -38.5911314537745
1.11522816585992, -2.11070108898683, -38.8924222985293
1.11985657004199, -2.15671678443486, -39.1710725979095
1.12443616764674, -2.19058614478453, -39.4670908408004
1.13046813241666, -2.24237614948795, -39.8515382539985
1.13493775487181, -2.28798323601011, -40.1445161112699
1.13936184557664, -2.32597604332835, -40.4282672420131
1.14519138923736, -2.38440651931998, -40.7763634422827
1.14951276302001, -2.42245864063241, -41.0664178946057
1.15520850999489, -2.46988606457005, -41.4232173172162
1.15943182835197, -2.51472870515704, -41.7113314026491
1.16499978259091, -2.56628028924888, -42.0639791046396
1.17049725450213, -2.61704383222831, -42.3306590965796
1.17457516692257, -2.66519048507063, -42.6439973884262
1.17995349549657, -2.71549525419513, -43.0140314086176
1.18526603246767, -2.77484444634626, -43.3382373392136
1.19051436802402, -2.82572437194846, -43.6966783425765
1.19440941190754, -2.87125703959844, -43.8800891290752
1.19954905155996, -2.92287852612162, -44.2456552051807
1.20462857708923, -2.9730406442278, -44.5904242348225
1.20964937846428, -3.02915570338641, -44.8917590831096
1.21461279799583, -3.07253860558422, -45.2392979611324
1.21952013249058, -3.12129583285213, -45.5202325594098
1.22557733642336, -3.19075612949225, -45.9202675479352
1.23036299897417, -3.24675299837212, -46.2295280027852
1.23509650067676, -3.30093266528494, -46.5205454720773
1.23977896632639, -3.35132510087029, -46.8147071394895
1.24556193435493, -3.41718203552627, -47.1671151227524
1.25013349742941, -3.45621578727999, -47.4718025867187
1.25465743918945, -3.51823696932573, -47.7239496420645
1.26024689191357, -3.57975701557088, -48.1409261741478
1.26466723014416, -3.62920806452731, -48.3975671360253
1.27013012584566, -3.70223516590944, -48.7035456826482
1.27552515773237, -3.76267371563563, -49.0887640616353
1.27979344252504, -3.81434379087279, -49.3410897383853
1.2850704756386, -3.87991454127116, -49.6823906133423
1.290284157484, -3.94448196506928, -49.9868970290583
1.29543599111043, -4.00622948666325, -50.3120861194985
1.29951390353087, -4.05631500589601, -50.5525974911747
1.30455803087107, -4.10693884857535, -50.8181198874514
1.3095442450218, -4.17735426523114, -51.1320690529553
1.31545310463232, -4.25061023495832, -51.4982159853118
1.32031647552102, -4.30833865715146, -51.7883018946151
1.3251259873748, -4.37286306773314, -52.1010463298095
1.32988282005496, -4.43545976570116, -52.394356481136
1.33458811507258, -4.49750388933332, -52.7260040006464
1.34016799245342, -4.55922334866774, -52.9966220468429
1.34476374414257, -4.62547777334644, -53.275939937778
1.35021521089153, -4.70273036548695, -53.6311419865941
1.35470640377999, -4.76397677962569, -53.9140589201936
1.36003523728506, -4.8245734111229, -54.1829569055251
1.36529947727742, -4.9019312720263, -54.5224885566289
1.36963811957363, -4.96385404767766, -54.8062431604112
1.37478791685446, -5.02024884688336, -55.0849213781622
1.37987736355889, -5.09694099259049, -55.3466777088305
1.38490785781722, -5.15794926035851, -55.6990704024473
1.38988074973025, -5.23651985504983, -55.951374839773
1.39479734354427, -5.29562996399217, -56.2561227262763
1.39965889970444, -5.37127584380359, -56.5076564105104
1.40526277722244, -5.44543273861975, -56.8751533024886
1.4100092122469, -5.51593325258725, -57.1051898421935
1.41470433345528, -5.58656088194394, -57.4472804228319
1.42011858233714, -5.65786051831053, -57.7181712383892
1.42470624276355, -5.72406714814983, -57.9941569812134
1.42999797293823, -5.80875471906455, -58.222101209529
1.43522600059988, -5.87893506654395, -58.5744569456585
1.43965761539896, -5.94811761884693, -58.7570566817486
1.44477131850611, -6.02044088582069, -59.0489728882527
1.44982550917017, -6.09571659704994, -59.3679298138568
1.45482155666326, -6.18475056953846, -59.6343280722605
1.45976078353782, -6.25291543279346, -59.829151210276
1.46533767534842, -6.33256583300771, -60.2140872916541
1.47015939239943, -6.40623984995868, -60.3891319432155
1.47492816403652, -6.4753403010367, -60.6966541423115
1.48031483131807, -6.56614469943503, -61.0193775187413
1.48497397389336, -6.64336025715289, -61.2387632056882
1.49023821388572, -6.71535007997794, -61.4440050825107
1.49479265468669, -6.78376347581745, -61.7411069523562
1.4999399087982, -6.87835386437986, -62.0039712787362
1.50502687157725, -6.94742589941065, -62.2570646240499
1.51005493910781, -7.03877754224195, -62.4730707785684
1.51502545953752, -7.10828788966109, -62.6809717493584
1.51993973524747, -7.18648438768627, -63.0187374665153
1.52479902490058, -7.26959986126511, -63.2598250471549
1.53020151383074, -7.35746145906122, -63.5106329437248
1.5349479488552, -7.43876961590242, -63.7047608178463
1.54022640726599, -7.52040248186069, -63.9139701498399
1.5448651107184, -7.58817866109326, -64.1209422214719
1.5500251058573, -7.67812838512238, -64.3718505115834
1.55512451256866, -7.76564765779643, -64.6096919785904
1.56016473720818, -7.8381073554355, -64.8599459269356
1.56514713772712, -7.92423585807425, -65.1473531538845
1.57007302586843, -8.00750863374521, -65.3695233803872
1.57494366923977, -8.09314046548286, -65.5932486402076
1.57976029327156, -8.16836473072353, -65.7938991263462
1.58505018183808, -8.25947060894848, -66.0298634574064
1.5897566100013, -8.3387688877958, -66.2295039455242
1.59492684346739, -8.42691066113542, -66.4539473001967
1.60003624924587, -8.51478011745817, -66.6773637120835
1.60508624198251, -8.60407207077881, -66.8768139782875
1.61007818754001, -8.68605784514691, -67.0995138150314
1.61501340521553, -8.76452759780067, -67.340758241673
1.61989316983361, -8.8475261721705, -67.5321072339471
1.62519833219451, -8.94175255333483, -67.7752316982166
1.62996560818555, -9.02121243601679, -67.906908050468
1.6351498686622, -9.11326055814528, -68.0972711587011
1.63980972540548, -9.19123191757689, -68.2988089565492
1.64487847185577, -9.28475222780528, -68.4842240203041
1.64988874168836, -9.37034373243576, -68.6841296646599
1.65484186878394, -9.47195230381117, -68.9543761245963
1.66018162230465, -9.55745502712661, -69.1476330040256
1.66501938301308, -9.63458051237741, -69.327504875593
1.6698038473267, -9.7296988264873, -69.5294951631438
1.6749638424656, -9.81245790250533, -69.6290517676738
1.68006324917696, -9.90192257873353, -69.8262335559375
1.68510347381648, -10.009662576138, -70.061096672918
1.69008587433542, -10.0872259809247, -70.1727944286087
1.69501176247673, -10.1798231979006, -70.4719540279187
1.69988240584807, -10.2550407215982, -70.5307181526934
1.70509801427348, -10.3566938057309, -70.677139822223
1.70985745348945, -10.446239407489, -70.8841614523101
1.71495532535541, -10.5331907422381, -71.140140344976
1.71999405056381, -10.6136990919114, -71.2807983499326
1.72497498585417, -10.7064199119933, -71.3906964857555
1.7298994418124, -10.81096749071, -71.5837289025035
1.73514099056307, -10.8989317746841, -71.8114946517553
1.73995214182383, -10.9747343371133, -71.901358701766
1.74507446131105, -11.0776323249011, -72.1193129924691
1.75013706880281, -11.1649667600443, -72.3568074562013
1.75514134042424, -11.2612291261742, -72.4648601262679
1.7600886052705, -11.3417938075498, -72.5393872098283
1.76498014752576, -11.4555515752059, -72.7098560250296
1.77016066002954, -11.537639510109, -72.9214138655299
1.77494067899635, -11.6144529135375, -72.9867682114803
1.78000441085038, -11.7286946639043, -73.1222808053738
1.78500978106846, -11.8089412291304, -73.3721708481807
1.78995811962138, -11.8907351697634, -73.4309718565198
1.79485071152971, -12.0052698664394, -73.5695235608928
1.80000942972812, -12.0868824639542, -73.7732008183448
1.80510758930721, -12.1738664795351, -73.8310040818809
1.81014659559098, -12.2907226289418, -73.9919059896546
1.81512780554606, -12.3643085453663, -74.1962060437126
1.82005252997517, -12.4633682329025, -74.1957783722646
1.82492203558771, -12.5514706285154, -74.3780364627338
1.83003675088177, -12.6390230130586, -74.5691354675246
1.83509193030796, -12.7295926456259, -74.6945192486236
1.84008894394226, -12.8420265797315, -74.7173112633067
1.84502911510461, -12.9156316039016, -74.9180307770658
1.84991372246247, -13.0150645449145, -75.0651456329804
1.85502646998311, -13.1151406717561, -75.1357049956141
1.86007972717137, -13.2028474244592, -75.2239352191794
1.86507486254075, -13.292145926304, -75.4065008966759
1.87001319791935, -13.3806712027373, -75.5539625645659
1.87489601054955, -13.4846193578757, -75.7079525372725
1.87999121882621, -13.5697262190335, -75.8087649936555
1.8850273418788, -13.6718062592152, -75.9480974796503
1.89000573434571, -13.7785776161228, -76.0636514183829
1.89492770480642, -13.8609171457238, -76.1362403980366
1.9000491613492, -13.9533670493801, -76.2941037498171
1.90511092589689, -14.0563139596842, -76.3629395400215
1.91011437388725, -14.15015049363, -76.5123210670528
1.91506083375925, -14.2398863395825, -76.5760231441498
1.91995158907023, -14.3276167955196, -76.6809101643974
1.92502828707863, -14.4227598511613, -76.7391980228496
1.93004632591551, -14.524396248671, -76.9246304169223
1.93500704567687, -14.6243343260326, -76.9118006194288
1.9399117410542, -14.7151701038977, -77.1003651719214
1.94499126658347, -14.8100000013168, -77.2473280398472
1.95001206795852, -14.8931361308872, -77.2748786490125
1.95497548749007, -15.0018411130277, -77.2586468048591
1.96010457051244, -15.0886723558085, -77.5106559559986
1.96495461005625, -15.2039131010906, -77.5504673941436
1.96996785171291, -15.282926725722, -77.6354696858635
1.97492388321071, -15.38800179086, -77.6873234451953
1.98003579488607, -15.4782613834951, -77.7880167929139
1.98508823556581, -15.5658336155189, -77.9055899115207
1.9900825731001, -15.6697419118724, -77.8818794393589
1.9950201286837, -15.7610437714663, -77.9972798868494
1.99990217895395, -15.860368240301, -78.0672623888917
2.00492995543451, -15.951102817465, -78.2319375045743
2.01009782260517, -16.0602451258633, -78.2669426982832
2.01500959721669, -16.13647721559, -78.3302608437166
2.02005958995333, -16.2451633298846, -78.3995709498608
2.02505153551083, -16.3478739769525, -78.4579641186031
2.02998675318634, -16.4283540195137, -78.6180360819543
2.03505311049555, -16.5323444121049, -78.6931823497915
2.04006104598262, -16.625289226047, -78.6476326671974
2.04501189166446, -16.7266486807677, -78.8252519650342
2.05008717709257, -16.8250744943093, -78.8231484877267
2.05492566370242, -16.9098108204799, -78.9539122938381
2.06006320677741, -17.0047222953143, -78.977840748528
2.06496658366022, -17.0962114836299, -78.9855760523983
2.06998738503527, -17.1947582099602, -79.1783261004027
2.07495080456682, -17.2969519686268, -79.2604628409724
2.0800263724481, -17.3948137830904, -79.2932383156125
2.08504330712074, -17.4896708954594, -79.3512246313581
2.09000294779621, -17.58382483109, -79.4600867723476
2.09506909327424, -17.6778501315106, -79.4780165413386
2.1000768217873, -17.7723419854578, -79.5060656495571
2.10502746518715, -17.8859741546115, -79.5760204512222
2.10992231029099, -17.9721291816213, -79.6480636748603
2.11507303298386, -18.058489257567, -79.6937196806269
2.1200100038828, -18.1789416144776, -79.7535076920738
2.12504314815352, -18.2504043310001, -79.7858154117202
2.13001862972146, -18.3403962420006, -79.8208762901381
2.13493775487181, -18.4476998473292, -79.9836542004726
2.13994833382499, -18.5392476075137, -79.9490314559558
2.14504660027723, -18.6509517022995, -79.9811215181052
2.14994254482836, -18.7420166516098, -79.9932690976134
2.15506702294952, -18.8271999597151, -80.0037787522102
2.15999184710385, -18.9329141349226, -80.0914677169949
2.16499978259092, -19.0392031938187, -80.1371538563272
2.16995062827276, -19.1146668457283, -80.1302256047845
2.17498086006922, -19.2104063052522, -80.1973682404203
2.17995349549657, -19.323047645612, -80.3748066878822
2.18500194338571, -19.4165148532929, -80.2901324259589
2.1899923794012, -19.5061017927515, -80.399768827678
2.1950552030777, -19.6027019266129, -80.39190771837
2.20005968593025, -19.7130881654232, -80.4873120658963
2.20500715722237, -19.7919544159178, -80.4533679687859
2.21002360897594, -19.8913052201963, -80.5466807978005
2.21498277769894, -19.9796307142781, -80.5576556668295
2.22000782988254, -20.0999090845599, -80.5612185457293
2.22497540357315, -20.1794014245313, -80.5976545915931
2.23000589783148, -20.2793702437345, -80.6321427869234
2.2349787897445, -20.3700654320384, -80.7054243126298
2.24001176959216, -20.471912704662, -80.6258779040834
2.24498709048291, -20.5700829831496, -80.7002059711912
2.25001979289102, -20.6589029388849, -80.7346129142238
2.25499484266252, -20.7666142714688, -80.7922395381756
2.26002468956444, -20.8525305202215, -80.7953154260785
2.26499694886067, -20.9471052613943, -80.8192077231154
2.27002153865122, -21.0465042633096, -80.8823430367821
2.27498866046599, -21.1493087624895, -80.938208544985
2.28000575955782, -21.2431180866198, -80.8312614749943
2.28496556091846, -21.3391963911064, -80.942958450141
2.28997309540893, -21.4317508405536, -81.0187567078006
2.29502608595315, -21.5232733567038, -80.9112968579108
2.30002096077692, -21.6379622889136, -80.9742305867471
2.3049590415015, -21.7172135141767, -80.9881432296227
2.31003973221976, -21.821325102882, -80.9558406019957
2.31496375868545, -21.9347596300211, -81.0548366873085
2.32002620405077, -22.0334179310869, -81.0367530878262
2.32503031726055, -22.116964717426, -81.0733836337738
2.32997742728372, -22.2100507579242, -81.1349684840031
2.33496234558424, -22.2887359598087, -81.1521680489232
2.33998314695929, -22.4096299606749, -81.0227672303554
2.34503794881246, -22.4916831343169, -81.1218887738001
2.35003459351238, -22.5954686957919, -81.1643669934025
2.35497440408588, -22.6887292842191, -81.177287479747
2.36003523728506, -22.7977350792619, -81.1366194265535
2.36503777526172, -22.8889334406811, -81.1520917201447
2.36998334573004, -22.9781171396262, -81.0962116509203
2.37495852949932, -23.0766527117957, -81.146988637158
2.37996168439828, -23.1631575359714, -81.2068032130462
2.38499120768446, -23.2681410805224, -81.1867862745403
2.38996315073266, -23.3599138779568, -81.1858733084007
2.39496027525952, -23.4587465815706, -81.1695453722537
2.39998107663457, -23.5460332180707, -81.1881200032649
2.40502408830085, -23.65367086615, -81.2422156090754
2.4100092122469, -23.7439741696632, -81.1684906202622
2.4150155441328, -23.8447563850467, -81.2570940690591
2.41996482256145, -23.9288906174305, -81.2791260039594
2.42501037056442, -24.0263594083237, -81.1829853310827
2.42999797293823, -24.1252646932167, -81.1799139061491
2.43500322835498, -24.2151620192954, -81.1944220539809
2.44002488348165, -24.3403613569599, -81.2926894600311
2.44498913735975, -24.4180654148593, -81.2333416080265
2.44996905386885, -24.5093155376241, -81.2539869267255
2.45503439395343, -24.6030392771182, -81.2192345694961
2.45997121452727, -24.7118237375572, -81.2248419027662
2.46499120984787, -24.7987891494292, -81.1868448186041
2.47002236937198, -24.9064271593996, -81.255417911593
2.47499591140143, -24.9874734973794, -81.1789037245944
2.4799801149378, -25.1044462755784, -81.1735788578446
2.48497397389336, -25.1877408200495, -81.1722709294967
2.48997651187002, -25.2932713621927, -81.140978485192
2.49498678170262, -25.3694620824873, -81.2058291738906
2.50000386498445, -25.4649229049213, -81.1904249889072
2.50502687157725, -25.5542367160908, -81.0237620313512
2.50999244619715, -25.6648460113217, -81.2014119845752
2.51502545953752, -25.7660921038564, -81.1436445046188
2.52000081315797, -25.85305309837, -81.0831481258684
2.52498019481849, -25.9409273225247, -81.0354895802096
2.53002250943915, -26.0423028675168, -81.0498418367835
2.53500695224934, -26.141520419229, -81.0855409785442
2.53999316640007, -26.2448447470653, -81.027168775242
2.54498044586233, -26.3289548418154, -81.0181435119424
2.5500251058573, -26.4464810423644, -80.954618934212
2.55501184050112, -26.5155574478176, -80.9351940035026
2.55999766873837, -26.6201016756615, -80.9300921427436
2.56498197534373, -26.7100708145254, -80.9009894112328
2.57001859959078, -26.808390932212, -80.9452199698457
2.57499748182666, -26.9140160941379, -80.9120467381208
2.58002632359039, -27.0089604856347, -80.8912599213235
2.58499760063069, -27.1022038432033, -80.8149112039501
2.59001658874711, -27.1946450151019, -80.8434575509661
2.59497823622314, -27.2970222161541, -80.9528190405295
2.59998545159895, -27.382249296387, -80.7793617925619
2.60498581546295, -27.4644080391812, -80.688606472202
2.6099789088833, -27.5655790216814, -80.6020058574043
2.61501340521553, -27.6793224511263, -80.7746393589505
2.61999020803799, -27.7702289432272, -80.6767751260029
2.6250065483619, -27.8773378682221, -80.7690078780022
2.63001301765909, -27.9594654543279, -80.7807582941704
2.63500929753881, -28.0481765870249, -80.679038333998
2.63999508370189, -28.143989500216, -80.6128727413311
2.64501588507694, -28.2398174383588, -80.4620396589567
2.64997930460849, -28.3220127182537, -80.4826558199652
2.65502092237622, -28.4319738998807, -80.3963820539974
2.66000468423665, -28.5117403810018, -80.4855424946277
2.66501938301308, -28.6170445495564, -80.4120959413574
2.67002007560197, -28.7137424451848, -80.3623100993029
2.67500658588199, -28.8057010534605, -80.3590110066297
2.6800210005771, -28.9059518444037, -80.1738564711489
2.68501994761526, -29.017256857938, -80.2340271982807
2.69000330099514, -29.092365383174, -80.2030366079445
2.69501176247673, -29.1822741397992, -80.1940328601309
2.70000347479331, -29.299081348983, -80.2155304039816
2.70501824671298, -29.3694331808778, -80.0260650403599
2.71001520666296, -29.4847100346072, -80.02014786651
2.71499430874773, -29.5794690880918, -80.0430793556014
2.71999405056381, -29.6790524303088, -79.9507690990151
2.72501308019058, -29.7698222035538, -79.9888230003932
2.73001242654579, -29.8400224385754, -79.8440181481026
2.7349921066117, -29.9393142188964, -79.852407700396
2.73998894488151, -30.0677578489403, -79.7594188272795
2.74500170907336, -30.1385805075099, -79.8443050344515
2.74999323886876, -30.234719769439, -79.6310076846081
2.75499915856606, -30.3344108926953, -79.6572268019104
2.75998318119378, -30.4196667456032, -79.5942862376471
2.76501488969464, -30.5097319425778, -79.5880156684713
2.76998896819812, -30.6135349282858, -79.4890169495059
2.77500858525588, -30.7219231613847, -79.5885273905813
2.78000441085038, -30.7998615532692, -79.4826275404372
2.78500978106846, -30.9183927423192, -79.3556619210345
2.78999092008074, -31.0169054578898, -79.1826591359924
2.79501285246193, -31.0972350847617, -79.1911080889251
2.80000942972812, -31.1996609353775, -79.0729614159254
2.80501254729307, -31.2983235786957, -79.0589696877527
2.80999000843158, -31.3962636197605, -79.0122631252569
2.81500396908046, -31.4573968671093, -78.9004136884578
