Frequency Log(Hz), Gain(dB), Phase(deg)
3.00000330702098,-5.89058977450861,-0.0032179445670668
3.00500992863829,-5.89205904606694,-0.00477700110704509
3.00999901826351,-5.89152350678468,-0.00525905423713987
3.01500959721669,-5.89065249502372,-5.00457607207908E-05
3.02000165441083,-5.89029916609237,0.0077136566032649
3.02499426213247,-5.89119637575698,0.00422167949723722
3.03000562693885,-5.89153812299526,0.00132794914085356
3.03499714110545,-5.89143287944839,0.00255202107029883
3.04000571832066,-5.89081249320221,-0.00684098107654121
3.04499365893573,-5.89152182543241,-0.00100553726339779
3.04999706515493,-5.89158513693731,0.00844160171319189
3.05499694131327,-5.89256901181646,-0.00333091090489339
3.05999275589204,-5.89081874086099,-0.00575477664479212
3.06500140940756,-5.89050288657012,-0.00650944609949757
3.07000459811,-5.89103065757899,-0.00199070558895083
3.07500185499283,-5.89130169344054,-0.00378672609660208
3.0799927309839,-5.89227844363298,0.00366648177722225
3.08499342357279,-5.89012782402734,0.00303973339516672
3.09000294779621,-5.8904405399643,-0.000958062436218888
3.0950040985896,-5.89081792634213,0.0036381507234543
3.09999650842934,-5.89171940331855,-0.00190315478412915
3.1049957057457,-5.89120790028032,-0.00579095278792028
3.11000080906787,-5.8932094198588,0.00925585278499511
3.11499544576045,-5.89124740507228,0.000547669447271416
3.11999466293782,-5.89099508183484,-0.00578937279779106
3.12499765403033,-5.89275676364181,-0.000778903105853354
3.13000363828281,-5.88876821001729,-0.0108461952760309
3.13499704017419,-5.89211400938936,-0.00916034482971947
3.14000693911243,-5.89323589245049,0.0025537325424467
3.14500315417466,-5.89142573985496,-0.00478490585482006
3.14999981694791,-5.89259263623643,-0.00428287958889598
3.15499626213765,-5.89064365154882,-0.00151013901369045
3.16000583832442,-5.89202663875396,-0.0114200051607589
3.16499978259092,-5.89254758980607,-0.00046779550081012
3.17000532186667,-5.89163343049103,-0.000719905896925745
3.17499437664947,-5.89064467611053,-0.00237183171428454
3.17999358236785,-5.89200457946732,-0.00479230466947186
3.18500194338571,-5.89057767298174,-0.007512687022949
3.190005436766,-5.89185393333875,-0.000109498770658774
3.19500357510784,-5.89224953056166,-0.00565200158969993
3.19999588945832,-5.89096856384826,-0.00869185404882937
3.20499454320004,-5.89256512943129,0.00636785532098397
3.20999867030517,-5.89222117310398,0.000156691856823325
3.2149951049291,-5.89087416087497,0.00406643294220731
3.21999564412006,-5.88994755176935,0.00322088430836759
3.22499949691214,-5.89023096507646,0.00374712758630415
3.23000589783148,-5.8924728067203,-0.0117283479495907
3.23500233448344,-5.89126625454352,-0.00916092587465662
3.24000013239226,-5.89177311467547,0.00734822056757063
3.24499859482012,-5.89073293685985,0.00691327100405367
3.24999704841057,-5.88948689621022,-0.00674813239286902
3.25499484266252,-5.89133597596585,0.00167977937647525
3.26000246307543,-5.89143929415073,-0.00723125446352603
3.26499694886067,-5.89173488687981,-2.46596598326059E-05
3.26999981795393,-5.89009039364089,0.00270309222046389
3.27499939690885,-5.89124750375148,-0.00804536137821498
3.279995146171,-5.89133213794499,-0.0109713224289835
3.28499703799579,-5.89229718745815,0.00331215639885746
3.29000421164423,-5.89272113562216,0.0112655925034775
3.29499532746438,-5.89217994638236,-0.00100029721658577
3.30000068984962,-5.8917103288372,-0.00321958728356271
3.30499912220679,-5.89098102560941,-0.00473868652505676
3.31000011404039,-5.8900611149001,-0.00676076652433913
3.31500292665823,-5.8918263183185,-0.00197179140580062
3.31999716623034,-5.89113658717204,0.011152164097193
3.32500161211616,-5.89077279891336,-0.00912805783847515
3.3299963462566,-5.89171550481217,-0.00187166299771073
3.33499975090547,-5.89165064420232,0.00775027474824253
3.34000163504945,-5.88981119722785,0.00986129670296379
3.34500139819117,-5.89024735026116,0.00114771945114397
3.34999846102084,-5.89200048939815,-0.00314476615158022
3.35500119502274,-5.89194750659872,0.00154478615474671
3.35999992735521,-5.89107242807002,-0.00443471464136393
3.36500286974154,-5.89212092048244,-0.000421960501386751
3.37000059983632,-5.89272379570037,-0.00760982367389249
3.3750011721899,-5.8902951130625,0.001171298055707
3.3800038386795,-5.89131551406898,-0.00572136799231473
3.38499954179144,-5.89081176239734,-0.000994444032123861
3.38999610675649,-5.89255542104343,0.00136937186865289
3.39500099863917,-5.8916096696658,0.00483671394047069
3.39999717920894,-5.89091396766542,0.0112505014772735
3.40500021219199,-5.89159345255887,-0.012697821976689
3.41000134452198,-5.89178792390219,-0.0108061237541798
3.41499998889428,-5.89091764098182,-0.00763505412709203
3.42000326760922,-5.89002071810711,0.00223796242053222
3.42500276996446,-5.89059999400627,0.000844440023828306
3.42999797293823,-5.89294664698063,-0.00415981795233869
3.43500322835498,-5.89016809466443,0.00140981943922655
3.44000285615304,-5.88906474038352,0.00621814899760711
3.44499639610707,-5.89120615748759,-0.00818391741354599
3.44999775711607,-5.8896904064515,-0.00272671969040749
3.45499892831445,-5.89072884395531,0.00328480963556419
3.45999926429037,-5.89192304327339,-0.00473422328274123
3.46499814186728,-5.89160535775073,-0.000527310707615249
3.47000181218862,-5.89027584614563,0.00407196320588112
3.47500268555671,-5.89162636682209,-0.00245442924413183
3.48000020519702,-5.89352223384289,-0.00942008800220376
3.48500045445688,-5.89149946372602,-0.00435238707706798
3.4900026891692,-5.89146715896566,0.00340090995359909
3.49499972041892,-5.89249053378242,-0.000505943168306539
3.49999746978964,-5.89080821918026,-0.00688850049636897
3.50500158440836,-5.89301479124004,0.0115396182498033
3.50999869589289,-5.89122461581845,0.00341628828132476
3.5150007479109,-5.8914086986232,0.00715700292626756
3.52000081315797,-5.89052630224815,0.000997924709797288
3.52499830765425,-5.89291769829476,-1.05584355966242E-05
3.52999863661142,-5.89116379684971,-0.00499325766755563
3.53500105227064,-5.89339929703861,-0.00130352176210729
3.53999899894863,-5.89231084576726,-0.00407769744838002
3.54499774349243,-5.89067694130291,-0.00481544862930298
3.55000230764832,-5.89127427886626,0.00445551398304146
3.55500057168647,-5.89099496473347,0.0121178132899039
3.55999766873838,-5.89179986389109,-0.00101488873979163
3.56499849440886,-5.89221720399501,-0.00673209775404627
3.57000227037735,-5.89215471143345,0.0113709942634759
3.57499748182666,-5.89111983750303,0.00340264549585401
3.57999972789046,-5.89153095895844,0.00329834394701528
3.58499760063069,-5.8906857757351,-0.00242664077121209
3.59000099441034,-5.89173223298264,-0.00757077536361895
3.5949987916227,-5.89104789285446,-0.00424436624445942
3.6000006915169,-5.8917707582668,-0.00945620968262357
3.60500088092141,-5.89187963859457,0.00871349362075019
3.60999876643031,-5.89237108103089,-0.00677625566713174
3.61499868311915,-5.89188569690009,0.00564052384927529
3.61999991066602,-5.89108006954916,0.00715053401925537
3.6250017526808,-5.89235657872576,-0.00413154158803673
3.62999879536044,-5.8914009084846,-6.41912015622873E-05
3.63499992451262,-5.89009480511064,0.00717463705383265
3.63999971664584,-5.89086763577045,-0.00123048461107616
3.64500214571118,-5.8939487976188,-0.0105619382510018
3.65000194238805,-5.89174471645636,-0.00778800299373491
3.65499854471387,-5.89075984099779,-0.00160651588368108
3.6600002598612,-5.88955367334872,0.00770427520556117
3.66500188842177,-5.89165655203629,8.98583820557526E-05
3.66999845761835,-5.89213406273088,0.0016415302422173
3.67499803753525,-5.89078669007364,0.00508763191784585
3.67999987473582,-5.89125456466282,-0.00720568892228194
3.68499906355467,-5.8926307114261,0.000204941954847968
3.68999917191597,-5.89268539670691,-0.00700704285250049
3.69499951715893,-5.89040413179633,0.00450428560439368
3.69999943970551,-5.89213063212789,-0.00601543867823894
3.70499830253342,-5.8917195287823,-0.00164654002538155
3.70999943392397,-5.89113745530176,-0.00187051630225543
3.71499820689452,-5.89379317161712,-0.000379086938932897
3.72000175758472,-5.88940758249134,-0.000576653467872251
3.72500165224051,-5.89042315774608,-0.00230409138675136
3.73000112939508,-5.89161034061824,0.0121415470654222
3.73499955202159,-5.88978824521259,0.0092970427019422
3.73999998519068,-5.89195548367754,0.00701396587740532
3.74500170907336,-5.89276345188057,0.000869880215010515
3.75000043149688,-5.892029817271,-0.00378053338812035
3.75499915856606,-5.89218558759436,0.00572755658354457
3.76000075365051,-5.89150833612981,0.0033078034999326
3.7650009931606,-5.89083487671649,0.000475272837075406
3.76999927162233,-5.89299384616111,-0.0120881628925774
3.77499839999381,-5.89099861996452,-0.00247757037095543
3.7800010546204,-5.89207580714773,-3.66617858900252E-05
3.78499982768132,-5.89079904747311,0.00261040697101093
3.79000075973549,-5.89329518345429,-0.00425997774910645
3.79499988341478,-5.89181639478552,-0.00314781768867675
3.7999998142457,-5.88976514516879,-0.000895322841937832
3.80499987345287,-5.89248388089475,-0.0124436578244587
3.80999940525344,-5.89004156742308,0.0115261458409282
3.81500087271635,-5.89266291417941,0.00781362109284043
3.82000049721633,-5.89049665535613,0.00874710892537885
3.82500071596204,-5.89045902919783,0.00362857465068087
3.83000085729261,-5.89065091284849,0.00188489669125647
3.83500027237952,-5.89164562633632,0.00570001178122659
3.84000125787367,-5.89175679920345,0.00173031455625274
3.84500021896821,-5.891637495688,0.00233953992017364
3.84999943002093,-5.89147393889835,-0.00230233852437881
3.85500105538816,-5.88989158204215,0.00314853581801423
3.85999877785404,-5.89133210652079,0.00679744335999052
3.86500035836764,-5.89131103197101,0.00427053868414833
3.86999955780308,-5.89065519994045,-0.00167995400847495
3.87500119957869,-5.89082816441106,-0.00214845374510095
3.87999921680932,-5.89206269913736,0.00274634082512836
3.88500098825872,-5.89025371378326,0.00580251364183653
3.89000052382276,-5.89111750603393,-0.00151834896099161
3.89499982364306,-5.89114043702721,-0.00154382008637587
3.90000079057144,-5.89166326937532,0.00750650928660879
3.90500019940042,-5.8901468738908,0.00176629280828697
3.90999993987657,-5.89188961963821,-0.000912418810268175
3.91499934944091,-5.89078573187293,0.00725338707977929
3.92000021954807,-5.89145748271871,0.00841291059792483
3.92499944531419,-5.89041576666123,-0.00737818864054347
3.93000118355219,-5.89044328827381,-0.000478319951919167
3.93499999919761,-5.8941128249532,0.00515179004091429
3.93999998444321,-5.8932437858238,0.00704534535889594
3.94500044818794,-5.89179332719993,0.000893614243556291
3.95000072260443,-5.89119698530574,0.0109701895438512
3.95500016261192,-5.88943252275255,-0.00454493175296248
3.96000036280632,-5.89069472723268,-0.00252764711027663
3.96500064590053,-5.89132333531254,0.00264602702228981
3.97000035756839,-5.89150594821849,-0.00404674805627665
3.97500100809054,-5.89135752698671,-0.000882697401740492
3.97999979628936,-5.89003370748383,0.00812062509009367
3.98500032127905,-5.89250316957946,0.00460516267444626
3.98999980304422,-5.89158285875138,0.0128903797328628
3.9949996715612,-5.89010357806922,0.00764353046538273
3.99999926235039,-5.89241202772314,0.00715873969443548
4.00499993279315,-5.88964768013319,0.0169512264519475
4.00999901826351,-5.89093662077508,-0.00560096920664262
4.01499982889986,-5.89025117585557,0.00521807002499675
4.01999972309296,-5.88932130817673,0.0024030967641313
4.02499998981021,-5.88944458269166,0.00542591574684408
4.02999996489922,-5.89114244508736,0.000592515619922177
4.03500087262253,-5.89008325693532,0.00204109475524197
4.04000018516678,-5.89022683622543,0.00730337277510154
4.04499912883472,-5.88949009271561,-0.000793334134730031
4.05000066999145,-5.88926288628651,0.00826005907769851
4.05500050488675,-5.8899519007773,0.00730090678921405
4.05999980149489,-5.89071390930199,0.00324898639778252
4.06499966818652,-5.89025442276538,0.00973579210400888
4.06999943425922,-5.88901047224488,-0.0102530032112735
4.07500015340864,-5.89118490880957,-0.00210399124737958
4.07999945948522,-5.89017771511802,0.000314424788656871
4.08500007504357,-5.88843235158164,-0.00317630127700006
4.08999966016467,-5.88847133891887,-0.00194984892141416
4.09499922359612,-5.88957801721205,0.00411072573556234
4.09999972124884,-5.88931606830597,0.000114831021792358
4.10500046980998,-5.88886521064987,0.00911198969329761
4.10999923923137,-5.89032990993542,0.00854452524725055
4.11500010138476,-5.88909628142666,-0.00857275486624063
4.11999926527822,-5.88999533565791,0.00941472139486163
4.12500068712015,-5.88993686984789,-0.00729825262135287
4.13000063993298,-5.88926714900216,0.00126642880423281
4.13500000422688,-5.88894338189849,0.00427270927992391
4.13999961388398,-5.88779058068004,-0.00247092156014235
4.14500025761328,-5.88890846046508,0.00262180089716123
4.14999981694791,-5.88824054682072,-0.00241595197813282
4.1550005081115,-5.8887249033317,0.00333361493327503
4.16000024189028,-5.88869065351023,-0.00422960344088899
4.16499978259091,-5.88880428581312,-0.0104378553640224
4.16999985281723,-5.89076653453812,0.00233423143209954
4.17499978316379,-5.88961202725357,0.00229708492720795
4.18000026315334,-5.88939011325124,0.00674582634421588
4.18500062253674,-5.88811349701658,0.000258983746659443
4.19000021386719,-5.88940953488566,-0.00718917387688266
4.19499970276268,-5.88996881446944,-0.00311336031226046
4.19999971751092,-5.887017615843,-0.000441808556842936
4.20499958885294,-5.8890154479793,-0.00782954503169734
4.20999991727272,-5.88854037273318,0.00902186377316619
4.21500003572319,-5.88722445245298,0.00332089958742251
4.22000051846608,-5.88890937107427,0.00058947557933493
4.22499949691214,-5.88890756269162,-0.0010376909009052
4.22999994365738,-5.88818746110637,-0.011038967114755
4.23499998006698,-5.89018424691321,-0.00930966995462315
4.24000013239226,-5.88792189136432,-0.00058545002678097
4.24499974523708,-5.88830249665618,0.00373903123543955
4.25000046015857,-5.88791287116827,0.000588851662861564
4.25500046383352,-5.88786117601403,-0.00245992078971762
4.26000024036396,-5.88658108652725,0.000449234148449422
4.26500024478402,-5.88552855809812,-0.00571190850716231
4.26999981795393,-5.88787652690293,-0.00885193138567959
4.27500047053854,-5.88738479443511,-0.00208503696754581
4.28000045289684,-5.88684437216372,-0.00550462787455429
4.28500018557805,-5.88555995680429,-0.00201876315525656
4.29000006294166,-5.88612094349075,-0.0117768845851161
4.29500045403046,-5.88576979603322,-0.0137231483268347
4.29999967627841,-5.88636807655259,-0.011194657014878
4.30500012417703,-5.88771448312166,-0.0104885235405164
4.31000011404039,-5.88571023936708,-0.0120834949072846
4.3149999891828,-5.88806136742493,-0.01419973406866
4.32000007009975,-5.88531792452225,-0.00210724592240706
4.3249996983724,-5.88727933082329,-0.011859981450751
4.33000012995228,-5.8865247854857,-0.0155700976147081
4.33499975090547,-5.88441181051891,-0.00579530211202254
4.33999978627585,-5.88453687803686,-0.0165738177225272
4.34499957057935,-5.8857866651101,-0.0132288957244398
4.35000026771681,-5.88728924785278,-0.00445412513173947
4.35500030201814,-5.8868657091919,-0.0233942201656251
4.35999992735521,-5.88561128897571,-0.00297927953706627
4.36500025171443,-5.88426678216777,-0.0159814051004411
4.36999973714728,-5.88580264523705,-0.0160816604344305
4.37500031937712,-5.88345226938324,-0.0126049561496617
4.37999962343549,-5.88419958989715,-0.0135588256823227
4.38500037519335,-5.88599877745617,-0.0225786165391276
4.39000022608364,-5.88465353533422,-0.0276216993614374
4.39500018420899,-5.88326955375796,-0.0186554081641176
4.40000039965217,-5.88408891798438,-0.0246300241128013
4.40500021219199,-5.88281174916708,-0.0183730446488841
4.40999977095989,-5.8832049977507,-0.0190573729070448
4.41499998889428,-5.88215584024507,-0.0222313028753967
4.42000019213064,-5.88378797496519,-0.0230162093326752
4.42499972968722,-5.88286516085148,-0.0186607939789821
4.43000022705599,-5.88128745099575,-0.0371084058758115
4.43500025728628,-5.88213757741189,-0.0317569562549171
4.43999991909148,-5.88469819954143,-0.0278915175248187
4.44500002543524,-5.88375942789745,-0.0276300599091477
4.44999990978314,-5.88274836919549,-0.0242519633073198
4.45500034699562,-5.88277427163508,-0.0319721336273249
4.45999996551124,-5.88173395719979,-0.0334148219876905
4.46500022145152,-5.88356961854502,-0.0339058619728428
4.46999975641676,-5.88153520942441,-0.0352085249789776
4.47499997590728,-5.8811994314813,-0.0322303805894978
4.48000020519702,-5.88076765814577,-0.0339052564565144
4.48499979246247,-5.88131956182807,-0.0474489144681726
4.49000007151029,-5.88210220241058,-0.0331135931859713
4.49499972041892,-5.88041505219301,-0.040787764042087
4.50000002787886,-5.8809577646413,-0.0475217559002728
4.50499968781134,-5.8803951257689,-0.041278694163031
4.50999994582125,-5.88173223713746,-0.0301642969084031
4.51500013010222,-5.88047134930613,-0.0416502607688008
4.52000020242138,-5.88192288431333,-0.0504818069545487
4.52500011889628,-5.879545246479,-0.0517790957305187
4.52999983028398,-5.88035640165055,-0.0516544183455556
4.53499987226528,-5.87697394820225,-0.0585585967675708
4.54000016544894,-5.8795151848433,-0.050365857970556
4.54500004979106,-5.87767404763788,-0.0598527102691018
4.5500000277616,-5.87912244539333,-0.0631128778179387
4.55500000823807,-5.87997814017681,-0.0673699925931276
4.55999989674078,-5.87956521299702,-0.0483979326218302
4.56500014628082,-5.87958472448819,-0.0605282244571738
4.57000009310251,-5.87950144162203,-0.0717205375193227
4.57500017228098,-5.87781527564335,-0.0615733208152429
4.58000025982042,-5.87718907989688,-0.0646250537616172
4.58500022984226,-5.87708560208313,-0.0668562373277045
4.58999995476798,-5.87830090332623,-0.071585101774967
4.59499981936714,-5.87695465222332,-0.0718875753085921
4.60000018352825,-5.87932251016469,-0.0665593327095839
4.60499987657378,-5.87753304933786,-0.072300492183477
4.60999975928383,-5.87782985240564,-0.0751846558191266
4.61500015535125,-5.87706987434808,-0.0691398354282076
4.61999991066602,-5.87601236074688,-0.0927077642194918
4.62499983439354,-5.8767828911793,-0.0824377384392022
4.63000021761126,-5.87494880836402,-0.0901976516568615
4.63499992451263,-5.87561584862355,-0.0877336899019654
4.64000017993751,-5.87524673772966,-0.0924572421981727
4.64499985577463,-5.87691153101292,-0.0859183903363072
4.65000013140911,-5.87650885572069,-0.0881629679601402
4.65499988740613,-5.87496660631432,-0.0926476504269212
4.65999981742117,-5.87670776903305,-0.104951160995279
4.66500013892388,-5.87528639941083,-0.10807301854376
4.67000018709664,-5.87441093122952,-0.103142729441731
4.67500017463771,-5.87413548846771,-0.108315300424417
4.67999987473582,-5.87659329273861,-0.118363917220313
4.68499989893638,-5.87389513460905,-0.113537430635104
4.68999999773495,-5.87501841800074,-0.119531793745774
4.69499992534175,-5.87463019340383,-0.109317814644468
4.69999984321598,-5.87356409428834,-0.107447194573524
4.70499989810149,-5.87331787168389,-0.128540470028472
4.70999982824942,-5.87438899831349,-0.130970530775072
4.71500015595478,-5.87397235149583,-0.128520223806646
4.71999983084231,-5.87327890253586,-0.13094305131823
4.72500012849111,-5.87252424535695,-0.133718094073453
4.72999999966384,-5.87207247330297,-0.14458110093166
4.73499992428874,-5.87716169521307,-0.144167953916711
4.73999998519068,-5.87361377295529,-0.132768523571979
4.74499989011125,-5.87315602321055,-0.149930656355491
4.7500000718683,-5.87473915530823,-0.156370147608462
4.75499986959116,-5.87275033937598,-0.15301615259666
4.7600000507659,-5.87238314610263,-0.15623199205379
4.76499995090262,-5.87252208139116,-0.158282585134803
4.76999995850858,-5.87130832653485,-0.160864169552899
4.77500009755408,-5.87144172647677,-0.173352478153611
4.78000004774634,-5.87216164978313,-0.170954788381311
4.78500015946457,-5.87340797618039,-0.172933053165958
4.79000010376545,-5.87014219336826,-0.186336802825439
4.79499988341478,-5.86990753905671,-0.172502854988265
4.80000013476521,-5.87020593785662,-0.195892841253282
4.80499987345287,-5.87207915099722,-0.191278881225459
