Frequency Log(Hz), Gain(dB), Phase(deg)
1.00050859443331,-56.7044264922897,0.282042644609398
1.02025265262906,-56.7395534343312,-0.0810562840313834
1.03913799678944,-56.6853846408667,-0.241336218898014
1.06076708777737,-56.7192266532456,0.306023491664792
1.07968984048093,-56.7424546276767,0.584676961589413
1.09943389867669,-56.7126432592097,0.0790705810561797
1.11985657004199,-56.7193233996594,0.156651328564172
1.13936184557664,-56.6896238677937,0.0850912943911218
1.15943182835197,-56.7238470464477,-0.0329642123287566
1.17995349549657,-56.7530416693761,0.355518790941989
1.19954905155996,-56.7245141976743,0.188576835846361
1.21952013249058,-56.749166255729,0.247258860893118
1.23977896632639,-56.7814897356555,-0.192831677412703
1.26024689191357,-56.7221162217608,-0.172920826634901
1.27979344252504,-56.6987459579023,-0.135740122861905
1.29951390353087,-56.7110040531094,-0.10753650757331
1.32031647552102,-56.7277480386906,0.0217123260437053
1.34016799245342,-56.7647991920337,-0.0934462030081142
1.36003523728506,-56.7886831659472,-0.329825671675748
1.37987736355889,-56.7740591342007,-0.445587385514919
1.39965889970444,-56.6756016560625,-0.0797808464919919
1.42011858233714,-56.6525739817871,0.468144586256235
1.43965761539896,-56.7395960492694,-0.442274360466783
1.45976078353782,-56.7444459548329,-0.0876330623198366
1.48031483131807,-56.6131692095483,-0.272389904644706
1.4999399087982,-56.7091858434642,0.304213920221065
1.51993973524747,-56.7076407226348,-0.16460704586602
1.54022640726599,-56.7079655283044,-0.219237955524537
1.56016473720818,-56.6971870766205,-0.250368357814247
1.57976029327156,-56.7718116959947,-0.383556801114523
1.60003624924587,-56.7366850312813,-0.110882477849501
1.61989316983361,-56.6402949043119,0.805976480735006
1.63980972540548,-56.7184202528137,-0.160710899900622
1.66018162230465,-56.7219394339038,-0.00121571648383764
1.68006324917696,-56.7226900718643,-0.607901022722196
1.69988240584807,-56.7848375003789,-0.288119428415709
1.71999405056381,-56.7309816591661,-0.220438526689042
1.73995214182383,-56.8346076908832,-0.144900683471497
1.7600886052705,-56.6407478774638,0.0779918936647002
1.78000441085038,-56.7607993817005,0.323931768704383
1.80000942972812,-56.7529884083024,0.371300145541078
1.82005252997517,-56.6470368510786,-0.0107093817636362
1.84008894394226,-56.7591256927251,-0.0529602881692806
1.86007972717137,-56.6862890613946,0.0375439344783153
1.87999121882621,-56.7587958858343,0.0413319072143116
1.9000491613492,-56.7198274282694,0.318211473035379
1.91995158907023,-56.7609343425827,0.591286554736582
1.9399117410542,-56.7604171781433,0.0406982386862113
1.96010457051244,-56.6907294279969,0.158747253150344
1.98003579488607,-56.7794000318694,-0.131697292983636
1.99990217895395,-56.7421379877458,0.660878838462019
2.02005958995333,-56.7696643363963,0.399451115432678
2.04006104598262,-56.693515294579,0.517120581550383
2.06006320677741,-56.7624594121585,1.02648005764922
2.0800263724481,-56.573787379262,-0.26248645018677
2.1000768217873,-56.681760970206,0.140666437018115
2.1200100038828,-56.738902356225,0.324386892872709
2.13994833382499,-56.6940909973182,0.15332856793223
2.15999184710385,-56.6997895742408,0.439020012428046
2.17995349549657,-56.6338046332245,-0.0264191832369827
2.20005968593025,-56.7002185085959,-0.0523870872138834
2.22000782988254,-56.6746836657533,0.30562323614293
2.24001176959216,-56.5958992401098,0.78124566918419
2.26002468956444,-56.7633938990507,0.316242507927642
2.28000575955782,-56.7668071635746,2.54330969066071
2.30002096077692,-56.6322739626527,-0.00279342052871685
2.32002620405077,-56.7173610344787,0.496448814106781
2.33998314695929,-56.7345999556506,0.0845488594493474
2.36003523728506,-56.7971241356894,-0.19793458847392
2.37996168439828,-56.7225968893766,0.330136684911531
2.39998107663457,-56.7350061878122,0.369757417144177
2.41996482256145,-56.768755340356,0.427256377553737
2.44002488348165,-56.7977192143026,1.10225671951658
2.45997121452727,-56.7124307707593,0.594109401675332
2.4799801149378,-56.6628296933537,0.421041219340281
2.50000386498445,-56.7998232997294,0.215800388675647
2.52000081315797,-56.6517169634673,1.05327063016324
2.53999316640007,-56.713157806729,0.154622448492023
2.55999766873838,-56.7675358928992,-0.271217260785802
2.58002632359039,-56.6930425249044,0.288624828484463
2.59998545159895,-56.7286116442381,0.76528242579585
2.61999020803799,-56.7764558503766,0.286208048995547
2.63999508370189,-56.7930068888683,0.985854971218412
2.66000468423665,-56.6893960765127,0.664842177510594
2.6800210005771,-56.6937570683441,0.901332168877983
2.70000347479331,-56.6985373862427,0.492513744259829
2.71999405056381,-56.7049656455183,0.900717991426977
2.73998894488151,-56.7558450512421,0.949722254796538
2.75998318119378,-56.7142492327387,1.0770991222089
2.78000441085038,-56.6825161582683,1.03995496334685
2.80000942972812,-56.7298410619806,1.24243553508528
2.81999131431761,-56.6700416028134,0.967509418548262
2.84000125787367,-56.7228808843542,1.02874796797986
2.85999598622914,-56.7596453713811,1.04771012567692
2.87999121882621,-56.735362959416,1.4510816044457
2.89999824459179,-56.7339139291623,1.38271972779162
2.92000021954807,-56.6989818609781,1.63154802887109
2.94000462833547,-56.7411706153466,1.0841181806732
2.95999371040158,-56.6510004467701,1.04709644628484
2.97999344328606,-56.759751050701,1.89520210365144
3.00000330702098,-56.6729578077091,1.78415780753424
3.02000165441083,-56.8030123856638,2.06998721132903
3.04000571832066,-56.6469750744805,2.09168099331422
3.05999275589204,-56.7407356601802,2.20935640720506
3.0799927309839,-56.7159937113595,1.85828265618888
3.09999650842934,-56.7329264993281,2.47810451589161
3.11999466293782,-56.6940601839884,1.43443471120481
3.14000693911243,-56.6775102898103,2.11919380304989
3.16000583832442,-56.6408097596986,2.52734823225109
3.17999358236785,-56.6611842786844,2.55127622062831
3.19999588945832,-56.8012617730844,3.00071363262712
3.21999564412006,-56.7661619761839,2.81879107664408
3.24000013239226,-56.614998047089,2.92139869412566
3.26000246307543,-56.7735933962097,3.07625355036491
3.279995146171,-56.6315177642617,3.81003213052351
3.30000068984962,-56.6888354761868,4.22821873204129
3.31999716623034,-56.7399191045637,3.49340980167286
3.34000163504945,-56.6260169079715,3.14848908692352
3.35999992735521,-56.6308065937695,4.39063182859312
3.3800038386795,-56.6601702592585,4.56927124040523
3.39999717920894,-56.7313812411221,3.8140840815004
3.42000326760922,-56.7693112337561,4.50943144054546
3.44000285615304,-56.7253571341697,4.66566089622563
3.45999926429037,-56.6348688747585,4.87503577762762
3.48000020519702,-56.6925327022425,5.15356719272171
3.49999746978964,-56.5890232110127,5.94102974570507
3.52000081315797,-56.7132752283059,6.34326062026028
3.53999899894863,-56.7204531426703,5.67804009841365
3.55999766873838,-56.5863353915913,6.22299913661533
3.57999972789046,-56.6141846807792,6.50361472609233
3.6000006915169,-56.6011896004061,7.23873354561783
3.61999991066602,-56.7132905975579,7.06368241046651
3.63999971664584,-56.600002782948,7.38407659517186
3.6600002598612,-56.6615476764837,7.57353296548512
3.67999987473582,-56.6160380154637,8.42314035545016
3.69999943970551,-56.6880282148173,8.32717255266105
3.72000175758472,-56.6136125039935,9.00786641679636
3.73999998519068,-56.572004441668,9.82112796027425
3.76000075365051,-56.565064452086,10.2354073588052
3.7800010546204,-56.4853796102586,10.5958898032465
3.7999998142457,-56.6892840514675,11.0876694103364
3.82000049721633,-56.5877352878019,11.4737271407259
3.84000125787367,-56.5370223776687,12.0250047593234
3.85999877785404,-56.5182943078797,12.6334405355667
3.87999921680932,-56.511990440351,13.0107654158367
3.90000079057144,-56.4373367058297,13.3924587329424
3.92000021954807,-56.4044039645552,13.955860871582
3.93999998444321,-56.4069250727131,14.6215854478142
3.96000036280632,-56.3305729942345,15.574783377098
3.97999979628936,-56.283166567461,15.9934727588533
3.99999926235039,-56.3663988664523,16.7222233254659
4.01999972309296,-56.2508844740891,18.191442705766
4.04000018516678,-56.2788927227578,18.0674453464024
4.05999980149489,-56.2557206985777,19.2583030706571
4.07999945948522,-56.1083349920472,20.1586602987937
4.09999972124884,-56.1240081039448,21.0708817156816
4.11999926527822,-56.0382374243392,22.1129475713103
4.13999961388398,-56.0182624582819,22.6665794153759
4.16000024189028,-55.9735357172763,23.5850589057608
4.18000026315334,-55.9030199228234,24.7108335931605
4.19999971751092,-55.8005028400354,25.5822051952619
4.22000051846608,-55.7473069277827,27.038617081954
4.24000013239226,-55.5848423889297,27.9029212785349
4.26000024036396,-55.4802583164251,28.6799181895045
4.28000045289684,-55.5022757811857,30.1014670807132
4.29999967627841,-55.314108115223,30.8604428475768
4.32000007009975,-55.2326832090495,32.8720562423422
4.33999978627585,-55.0328918442198,32.9128152189169
4.35999992735521,-54.961354706723,34.8275579406549
4.37999962343549,-54.8445433664446,36.4554590715655
4.40000039965217,-54.6530543368249,37.4865370779195
4.42000019213064,-54.547141334752,38.5265251083027
4.43999991909148,-54.4202362685268,40.1371987415496
4.45999996551124,-54.243996064362,41.052992861345
4.48000020519702,-54.0705042878125,42.57171411802
4.50000002787886,-53.794483427734,43.6430473571054
4.52000020242138,-53.654579383159,45.0047067437593
4.54000016544894,-53.4934820505121,46.6348441047409
4.55999989674078,-53.2617814614758,47.6140091303185
4.58000025982042,-53.0104178622828,48.9753007027013
4.60000018352825,-52.7937351062551,50.2513799791977
4.61999991066602,-52.5457264553354,51.482891348799
4.64000017993751,-52.3296095370604,52.6517187858389
4.65999981742117,-51.9824655200022,53.836697243596
4.67999987473582,-51.7291240188661,55.3751705738388
4.69999984321598,-51.4878272003912,56.4189117354654
4.71999983084231,-51.1836528143962,57.749683682568
4.73999998519068,-50.9254751589003,58.5591402086394
4.7600000507659,-50.6233547442229,59.9415976469736
4.78000004774634,-50.3219019770621,61.1293788863966
4.80000013476521,-49.9967304474796,62.354441783384
4.81999988502912,-49.6739681044972,63.1475774727992
4.84000008860648,-49.3780002301947,64.0921926803561
4.85999989449898,-49.0400820129469,65.1161793672001
4.88000001659953,-48.7200480905462,66.0497384842887
4.90000002677911,-48.3558337454628,67.0193644075257
4.91999997640922,-48.0257994993374,67.9242228601975
4.93999998444321,-47.6867841259406,68.9616086820424
4.95999991931584,-47.32534793396,69.7636920833566
4.98000000805454,-46.9740904906952,70.4282134624926
5.00000007128752,-46.6072642779451,71.238157600087
5.01999991622514,-46.2560607525934,72.0717617736637
5.0400000007271,-45.8751210150107,72.5886679250222
5.05999997763349,-45.5457455409677,73.285611221433
5.07999996411862,-45.1126265941069,73.9710412767679
5.10000004252948,-44.7970977434319,74.7166583376781
5.12000003233021,-44.3867449744069,75.2826493837483
5.14000005340117,-44.0367470463264,75.8604784594473
5.15999996206668,-43.638272720732,76.5924551211282
5.17999999592389,-43.250409514859,76.9320210482461
5.19999997271323,-42.892293673049,77.5801428664898
5.22000003103394,-42.5061089335186,77.9082890816659
5.24000001601868,-42.1320162232555,78.3113680781309
5.26000001809219,-41.7361243565675,79.0469098390106
5.28000002836115,-41.322523530612,79.3826459332319
5.29999998035002,-40.9618709092792,79.7358256713238
5.31999997330442,-40.5731998427989,80.1828914406874
5.33999997115356,-40.1746527327011,80.5223774890791
5.36000001563362,-39.8114297343484,80.9442261703788
5.37999996065652,-39.3980708605847,81.29601727258
5.39999999709807,-39.0034483738645,81.5099505064639
5.42000003835614,-38.6029267838887,81.8403407769499
5.43999999251826,-38.2350499578083,82.1166577723865
5.45999996551124,-37.8348426592867,82.3942630458358
5.48000000429903,-37.4378412785883,82.6624112512004
5.50000002787886,-37.0300690500814,82.9449096166929
5.52000001920024,-36.6487862341634,83.1147533329916
5.5399999904741,-36.2523339952672,83.2825766616496
5.5600000081406,-35.8570193502664,83.4934146345013
5.57999999385552,-35.4642072825465,83.6287891185886
5.59999998033263,-35.0618366681053,83.8860805969507
5.62000000769121,-34.657877008298,84.144587948509
5.6399999946209,-34.2647099078156,84.255011970685
5.65999999439724,-33.8678735441132,84.339391138013
5.68000000149394,-33.4644433751685,84.4946583748511
5.70000000462006,-33.0583432190776,84.5879702582504
5.71999998498202,-32.6589581844072,84.7186792123329
5.73999998519068,-32.2613527021808,84.7232083647471
5.76000001562164,-31.8677973237267,84.9390115140579
5.78000001418383,-31.4589014126199,85.009513150651
5.80000000655743,-31.0721728142801,85.0018651455118
5.82000000746663,-30.6623945399451,85.1121715181068
5.84000000091131,-30.2604049882265,85.1619583318018
5.86000000616331,-29.8677020016559,85.1947761699035
5.87999998993988,-29.4607076679216,85.2596133928469
5.90000000131934,-29.0537249025049,85.2181864750582
5.92000000072311,-28.6385396353153,85.1960966688853
5.94000000766279,-28.2331498335697,85.1699487509288
5.96000000801397,-27.8312443748793,85.1695837147592
5.98000000805454,-27.4313322109108,85.2664097235106
5.99999999039388,-27.0279560076037,85.2015435873581
